name,type,start_time,duration,"mosi","miso"
"SPI","enable",2025-01-30T23:54:14.050861017+00:00,0.000000083,,
"SPI","disable",2025-01-30T23:54:14.955358683+00:00,0.000000083,,
"SPI","enable",2025-01-30T23:54:15.055099683+00:00,0.000000083,,
"SPI","result",2025-01-30T23:54:15.055117517+00:00,0.000007583,0x10,0x00
"SPI","result",2025-01-30T23:54:15.055127850+00:00,0.000007583,0x00,0x24
"SPI","disable",2025-01-30T23:54:15.055137100+00:00,0.000000083,,
"SPI","enable",2025-01-30T23:54:15.055511183+00:00,0.000000083,,
"SPI","result",2025-01-30T23:54:15.055516933+00:00,0.000007583,0x01,0x9F
"SPI","result",2025-01-30T23:54:15.055527183+00:00,0.000007583,0x00,0x09
"SPI","disable",2025-01-30T23:54:15.055536433+00:00,0.000000083,,
"SPI","enable",2025-01-30T23:54:15.055551183+00:00,0.000000083,,
"SPI","result",2025-01-30T23:54:15.055552850+00:00,0.000007583,0x81,0x1A
"SPI","result",2025-01-30T23:54:15.055563183+00:00,0.000007583,0x05,0x40
"SPI","disable",2025-01-30T23:54:15.055574183+00:00,0.000000083,,
"SPI","enable",2025-01-30T23:54:15.055586850+00:00,0.000000083,,
"SPI","result",2025-01-30T23:54:15.055588433+00:00,0.000007583,0x27,0xB0
"SPI","result",2025-01-30T23:54:15.055598767+00:00,0.000007583,0x00,0x7B
"SPI","disable",2025-01-30T23:54:15.055608017+00:00,0.000000083,,
"SPI","enable",2025-01-30T23:54:15.055620683+00:00,0.000000083,,
"SPI","result",2025-01-30T23:54:15.055622350+00:00,0.000007583,0x27,0x9B
"SPI","result",2025-01-30T23:54:15.055632683+00:00,0.000007583,0x00,0x08
"SPI","disable",2025-01-30T23:54:15.055641933+00:00,0.000000083,,
"SPI","enable",2025-01-30T23:54:15.055654600+00:00,0.000000083,,
"SPI","result",2025-01-30T23:54:15.055656267+00:00,0.000007583,0x27,0x86
"SPI","result",2025-01-30T23:54:15.055666600+00:00,0.000007583,0x00,0x8A
"SPI","disable",2025-01-30T23:54:15.055675850+00:00,0.000000083,,
"SPI","enable",2025-01-30T23:54:15.055690850+00:00,0.000000083,,
"SPI","result",2025-01-30T23:54:15.055692517+00:00,0.000007583,0xBC,0x40
"SPI","result",2025-01-30T23:54:15.055702850+00:00,0.000007583,0x8F,0x80
"SPI","disable",2025-01-30T23:54:15.055713183+00:00,0.000000083,,
"SPI","enable",2025-01-30T23:54:15.055725850+00:00,0.000000083,,
"SPI","result",2025-01-30T23:54:15.055727517+00:00,0.000007583,0xEF,0x06
"SPI","result",2025-01-30T23:54:15.055737850+00:00,0.000007583,0x30,0x10
"SPI","disable",2025-01-30T23:54:15.055748183+00:00,0.000000083,,
"SPI","enable",2025-01-30T23:54:15.055760850+00:00,0.000000083,,
"SPI","result",2025-01-30T23:54:15.055762517+00:00,0.000007583,0xDA,0x00
"SPI","result",2025-01-30T23:54:15.055772850+00:00,0.000007583,0x55,0x00
"SPI","disable",2025-01-30T23:54:15.055783267+00:00,0.000000083,,
"SPI","enable",2025-01-30T23:54:15.055797933+00:00,0.000000083,,
"SPI","result",2025-01-30T23:54:15.055799600+00:00,0.000007583,0xDC,0x00
"SPI","result",2025-01-30T23:54:15.055809933+00:00,0.000007583,0x70,0x00
"SPI","disable",2025-01-30T23:54:15.055820267+00:00,0.000000083,,
"SPI","enable",2025-01-30T23:54:15.055839267+00:00,0.000000083,,
"SPI","result",2025-01-30T23:54:15.055840933+00:00,0.000007583,0x2E,0x02
"SPI","result",2025-01-30T23:54:15.055851183+00:00,0.000007583,0x00,0xFF
"SPI","disable",2025-01-30T23:54:15.055860433+00:00,0.000000083,,
"SPI","enable",2025-01-30T23:54:15.055875183+00:00,0.000000083,,
"SPI","result",2025-01-30T23:54:15.055876850+00:00,0.000007583,0xAF,0x00
"SPI","result",2025-01-30T23:54:15.055887183+00:00,0.000007583,0x2D,0x05
"SPI","result",2025-01-30T23:54:15.055897517+00:00,0.000007583,0xD4,0x00
"SPI","disable",2025-01-30T23:54:15.055906767+00:00,0.000000083,,
"SPI","enable",2025-01-30T23:54:15.055919433+00:00,0.000000083,,
"SPI","result",2025-01-30T23:54:15.055921183+00:00,0.000007583,0xAE,0x00
"SPI","result",2025-01-30T23:54:15.055931433+00:00,0.000007583,0xCF,0xFF
"SPI","disable",2025-01-30T23:54:15.055942350+00:00,0.000000083,,
"SPI","enable",2025-01-30T23:54:15.055965683+00:00,0.000000083,,
"SPI","result",2025-01-30T23:54:15.055967350+00:00,0.000007583,0x82,0x00
"SPI","result",2025-01-30T23:54:15.055977683+00:00,0.000007583,0x01,0x00
"SPI","result",2025-01-30T23:54:15.055988017+00:00,0.000007583,0x00,0x00
"SPI","result",2025-01-30T23:54:15.055998433+00:00,0.000007583,0x80,0x03
"SPI","result",2025-01-30T23:54:15.056008767+00:00,0.000007583,0x10,0x98
"SPI","result",2025-01-30T23:54:15.056019100+00:00,0.000007583,0x00,0x00
"SPI","disable",2025-01-30T23:54:15.056028350+00:00,0.000000083,,
"SPI","enable",2025-01-30T23:54:15.056041017+00:00,0.000000083,,
"SPI","result",2025-01-30T23:54:15.056042683+00:00,0.000007583,0x99,0x00
"SPI","result",2025-01-30T23:54:15.056053017+00:00,0.000007583,0xE0,0x00
"SPI","result",2025-01-30T23:54:15.056063350+00:00,0.000007583,0xE0,0x00
"SPI","disable",2025-01-30T23:54:15.056072600+00:00,0.000000083,,
"SPI","enable",2025-01-30T23:54:15.056094767+00:00,0.000000083,,
"SPI","result",2025-01-30T23:54:15.056096433+00:00,0.000007583,0xB7,0x00
"SPI","result",2025-01-30T23:54:15.056106767+00:00,0.000007583,0xD0,0x00
"SPI","disable",2025-01-30T23:54:15.056117183+00:00,0.000000083,,
"SPI","enable",2025-01-30T23:54:15.056130183+00:00,0.000000083,,
"SPI","result",2025-01-30T23:54:15.056131850+00:00,0.000007583,0xAC,0x00
"SPI","result",2025-01-30T23:54:15.056142183+00:00,0.000007583,0x00,0x00
"SPI","disable",2025-01-30T23:54:15.056152600+00:00,0.000000083,,
"SPI","enable",2025-01-30T23:54:15.056165267+00:00,0.000000083,,
"SPI","result",2025-01-30T23:54:15.056167017+00:00,0.000007583,0xAD,0x10
"SPI","result",2025-01-30T23:54:15.056177267+00:00,0.000007583,0x04,0x40
"SPI","disable",2025-01-30T23:54:15.056188183+00:00,0.000000083,,
"SPI","enable",2025-01-30T23:54:15.056220183+00:00,0.000000083,,
"SPI","result",2025-01-30T23:54:15.056221850+00:00,0.000007583,0x87,0x00
"SPI","result",2025-01-30T23:54:15.056232183+00:00,0.000007583,0x6C,0x00
"SPI","disable",2025-01-30T23:54:15.056242600+00:00,0.000000083,,
"SPI","enable",2025-01-30T23:54:15.056255267+00:00,0.000000083,,
"SPI","result",2025-01-30T23:54:15.056256933+00:00,0.000007583,0x88,0x00
"SPI","result",2025-01-30T23:54:15.056267267+00:00,0.000007583,0x80,0x0F
"SPI","disable",2025-01-30T23:54:15.056277683+00:00,0.000000083,,
"SPI","enable",2025-01-30T23:54:15.056290350+00:00,0.000000083,,
"SPI","result",2025-01-30T23:54:15.056292017+00:00,0.000007583,0x89,0x02
"SPI","result",2025-01-30T23:54:15.056302350+00:00,0.000007583,0x00,0x00
"SPI","disable",2025-01-30T23:54:15.056313267+00:00,0.000000083,,
"SPI","enable",2025-01-30T23:54:15.056332267+00:00,0.000000083,,
"SPI","result",2025-01-30T23:54:15.056333850+00:00,0.000007583,0x3D,0x00
"SPI","result",2025-01-30T23:54:15.056344183+00:00,0.000007583,0x00,0x00
"SPI","disable",2025-01-30T23:54:15.056353433+00:00,0.000000083,,
"SPI","enable",2025-01-30T23:54:15.056366100+00:00,0.000000083,,
"SPI","result",2025-01-30T23:54:15.056367767+00:00,0.000007583,0xBD,0x00
"SPI","result",2025-01-30T23:54:15.056378100+00:00,0.000007583,0x00,0x00
"SPI","disable",2025-01-30T23:54:15.056388433+00:00,0.000000083,,
"SPI","enable",2025-01-30T23:54:15.056409600+00:00,0.000000083,,
"SPI","result",2025-01-30T23:54:15.056411350+00:00,0.000007583,0x91,0x00
"SPI","result",2025-01-30T23:54:15.056421600+00:00,0.000007583,0x9F,0x00
"SPI","disable",2025-01-30T23:54:15.056432517+00:00,0.000000083,,
"SPI","enable",2025-01-30T23:54:15.056528350+00:00,0.000000083,,
"SPI","result",2025-01-30T23:54:15.056532017+00:00,0.000007583,0x87,0x00
"SPI","result",2025-01-30T23:54:15.056542350+00:00,0.000007583,0xE4,0x00
"SPI","disable",2025-01-30T23:54:15.056553267+00:00,0.000000083,,
"SPI","enable",2025-01-30T23:54:15.056565933+00:00,0.000000083,,
"SPI","result",2025-01-30T23:54:15.056567600+00:00,0.000007583,0x88,0x00
"SPI","result",2025-01-30T23:54:15.056577933+00:00,0.000007583,0xC0,0x00
"SPI","disable",2025-01-30T23:54:15.056588267+00:00,0.000000083,,
"SPI","enable",2025-01-30T23:54:15.056600933+00:00,0.000000083,,
"SPI","result",2025-01-30T23:54:15.056602600+00:00,0.000007583,0x89,0x00
"SPI","result",2025-01-30T23:54:15.056612933+00:00,0.000007583,0x00,0x00
"SPI","disable",2025-01-30T23:54:15.056623267+00:00,0.000000083,,
"SPI","enable",2025-01-30T23:54:15.056638433+00:00,0.000000083,,
"SPI","result",2025-01-30T23:54:15.056640100+00:00,0.000007583,0x91,0x00
"SPI","result",2025-01-30T23:54:15.056650433+00:00,0.000007583,0x7F,0x00
"SPI","disable",2025-01-30T23:54:15.056661350+00:00,0.000000083,,
"SPI","enable",2025-01-30T23:54:15.182856100+00:00,0.000000083,,
"SPI","result",2025-01-30T23:54:15.182871933+00:00,0.000007583,0x80,0x00
"SPI","result",2025-01-30T23:54:15.182882183+00:00,0.000007583,0x10,0x01
"SPI","result",2025-01-30T23:54:15.182894600+00:00,0.000007583,0xFF,0x00
"SPI","result",2025-01-30T23:54:15.182904850+00:00,0.000007583,0xFF,0x00
"SPI","result",2025-01-30T23:54:15.182917183+00:00,0.000007583,0x00,0x01
"SPI","result",2025-01-30T23:54:15.182927517+00:00,0.000007583,0x00,0x88
"SPI","result",2025-01-30T23:54:15.182939933+00:00,0.000007583,0xCD,0x08
"SPI","result",2025-01-30T23:54:15.182950267+00:00,0.000007583,0xCC,0x00
"SPI","result",2025-01-30T23:54:15.182960600+00:00,0.000007583,0xA8,0x00
"SPI","result",2025-01-30T23:54:15.182970933+00:00,0.000007583,0x41,0x01
"SPI","result",2025-01-30T23:54:15.182981267+00:00,0.000007583,0x00,0x00
"SPI","result",2025-01-30T23:54:15.182991683+00:00,0.000007583,0x89,0x1B
"SPI","result",2025-01-30T23:54:15.183002017+00:00,0.000007583,0x16,0x09
"SPI","result",2025-01-30T23:54:15.183012350+00:00,0.000007583,0x42,0x55
"SPI","result",2025-01-30T23:54:15.183022683+00:00,0.000007583,0x97,0x80
"SPI","result",2025-01-30T23:54:15.183033100+00:00,0.000007583,0x05,0x70
"SPI","result",2025-01-30T23:54:15.183043433+00:00,0.000007583,0x73,0x33
"SPI","result",2025-01-30T23:54:15.183053767+00:00,0.000007583,0x40,0xCA
"SPI","disable",2025-01-30T23:54:15.183063017+00:00,0.000000083,,
"SPI","enable",2025-01-30T23:54:15.183091267+00:00,0.000000083,,
"SPI","result",2025-01-30T23:54:15.183092933+00:00,0.000007583,0xDA,0x08
"SPI","result",2025-01-30T23:54:15.183103267+00:00,0.000007583,0x5D,0x00
"SPI","disable",2025-01-30T23:54:15.183114183+00:00,0.000000083,,
"SPI","enable",2025-01-30T23:54:15.183126850+00:00,0.000000083,,
"SPI","result",2025-01-30T23:54:15.183128517+00:00,0.000007583,0xDC,0x00
"SPI","result",2025-01-30T23:54:15.183138850+00:00,0.000007583,0x7C,0x00
"SPI","disable",2025-01-30T23:54:15.183149183+00:00,0.000000083,,
"SPI","enable",2025-01-30T23:54:15.183161850+00:00,0.000000083,,
"SPI","result",2025-01-30T23:54:15.183163517+00:00,0.000007583,0xA5,0x00
"SPI","result",2025-01-30T23:54:15.183173850+00:00,0.000007583,0x00,0x00
"SPI","disable",2025-01-30T23:54:15.183184183+00:00,0.000000083,,
"SPI","enable",2025-01-30T23:54:15.183197017+00:00,0.000000083,,
"SPI","result",2025-01-30T23:54:15.183198683+00:00,0.000007583,0x01,0x0F
"SPI","result",2025-01-30T23:54:15.183208933+00:00,0.000007583,0x00,0x70
"SPI","disable",2025-01-30T23:54:15.183218183+00:00,0.000000083,,
"SPI","enable",2025-01-30T23:54:15.183230933+00:00,0.000000083,,
"SPI","result",2025-01-30T23:54:15.183232600+00:00,0.000007583,0x81,0x00
"SPI","result",2025-01-30T23:54:15.183242933+00:00,0.000007583,0x6C,0x13
"SPI","disable",2025-01-30T23:54:15.183253267+00:00,0.000000083,,
"SPI","enable",2025-01-30T23:54:15.183265933+00:00,0.000000083,,
"SPI","result",2025-01-30T23:54:15.183267600+00:00,0.000007583,0x27,0x16
"SPI","result",2025-01-30T23:54:15.183277850+00:00,0.000007583,0x00,0x19
"SPI","disable",2025-01-30T23:54:15.183287100+00:00,0.000000083,,
"SPI","enable",2025-01-30T23:54:15.183299850+00:00,0.000000083,,
"SPI","result",2025-01-30T23:54:15.183301517+00:00,0.000007583,0x27,0x1B
"SPI","result",2025-01-30T23:54:15.183311767+00:00,0.000007583,0x00,0x00
"SPI","disable",2025-01-30T23:54:15.183321017+00:00,0.000000083,,
"SPI","enable",2025-01-30T23:54:15.183333683+00:00,0.000000083,,
"SPI","result",2025-01-30T23:54:15.183335350+00:00,0.000007583,0x27,0x04
"SPI","result",2025-01-30T23:54:15.183345683+00:00,0.000007583,0x00,0x0C
"SPI","disable",2025-01-30T23:54:15.183354933+00:00,0.000000083,,
"SPI","enable",2025-01-30T23:54:15.183367600+00:00,0.000000083,,
"SPI","result",2025-01-30T23:54:15.183369267+00:00,0.000007583,0x27,0x00
"SPI","result",2025-01-30T23:54:15.183379600+00:00,0.000007583,0x00,0x00
"SPI","disable",2025-01-30T23:54:15.183388850+00:00,0.000000083,,
"SPI","enable",2025-01-30T23:54:15.183401517+00:00,0.000000083,,
"SPI","result",2025-01-30T23:54:15.183403183+00:00,0.000007583,0x27,0x00
"SPI","result",2025-01-30T23:54:15.183413517+00:00,0.000007583,0x00,0x00
"SPI","disable",2025-01-30T23:54:15.183422767+00:00,0.000000083,,
"SPI","enable",2025-01-30T23:54:15.183435433+00:00,0.000000083,,
"SPI","result",2025-01-30T23:54:15.183437100+00:00,0.000007583,0x27,0x00
"SPI","result",2025-01-30T23:54:15.183447433+00:00,0.000007583,0x00,0x00
"SPI","disable",2025-01-30T23:54:15.183456683+00:00,0.000000083,,
"SPI","enable",2025-01-30T23:54:15.183469350+00:00,0.000000083,,
"SPI","result",2025-01-30T23:54:15.183471017+00:00,0.000007583,0x27,0x00
"SPI","result",2025-01-30T23:54:15.183481350+00:00,0.000007583,0x00,0x00
"SPI","disable",2025-01-30T23:54:15.183490517+00:00,0.000000083,,
"SPI","enable",2025-01-30T23:54:15.183503267+00:00,0.000000083,,
"SPI","result",2025-01-30T23:54:15.183504933+00:00,0.000007583,0x27,0x00
"SPI","result",2025-01-30T23:54:15.183515183+00:00,0.000007583,0x00,0x00
"SPI","disable",2025-01-30T23:54:15.183524433+00:00,0.000000083,,
"SPI","enable",2025-01-30T23:54:15.183537183+00:00,0.000000083,,
"SPI","result",2025-01-30T23:54:15.183538850+00:00,0.000007583,0x27,0x00
"SPI","result",2025-01-30T23:54:15.183549100+00:00,0.000007583,0x00,0x00
"SPI","disable",2025-01-30T23:54:15.183558350+00:00,0.000000083,,
"SPI","enable",2025-01-30T23:54:15.183571017+00:00,0.000000083,,
"SPI","result",2025-01-30T23:54:15.183572683+00:00,0.000007583,0x27,0x00
"SPI","result",2025-01-30T23:54:15.183583017+00:00,0.000007583,0x00,0x00
"SPI","disable",2025-01-30T23:54:15.183592267+00:00,0.000000083,,
"SPI","enable",2025-01-30T23:54:15.183604933+00:00,0.000000083,,
"SPI","result",2025-01-30T23:54:15.183606600+00:00,0.000007583,0x27,0x00
"SPI","result",2025-01-30T23:54:15.183616933+00:00,0.000007583,0x00,0x00
"SPI","disable",2025-01-30T23:54:15.183626183+00:00,0.000000083,,
"SPI","enable",2025-01-30T23:54:15.183638850+00:00,0.000000083,,
"SPI","result",2025-01-30T23:54:15.183640517+00:00,0.000007583,0x27,0x00
"SPI","result",2025-01-30T23:54:15.183650850+00:00,0.000007583,0x00,0x00
"SPI","disable",2025-01-30T23:54:15.183660100+00:00,0.000000083,,
"SPI","enable",2025-01-30T23:54:15.183672767+00:00,0.000000083,,
"SPI","result",2025-01-30T23:54:15.183674433+00:00,0.000007583,0x27,0x00
"SPI","result",2025-01-30T23:54:15.183684767+00:00,0.000007583,0x00,0x27
"SPI","disable",2025-01-30T23:54:15.183694017+00:00,0.000000083,,
"SPI","enable",2025-01-30T23:54:15.183706683+00:00,0.000000083,,
"SPI","result",2025-01-30T23:54:15.183708350+00:00,0.000007583,0x27,0x00
"SPI","result",2025-01-30T23:54:15.183718683+00:00,0.000007583,0x00,0x27
"SPI","disable",2025-01-30T23:54:15.183727850+00:00,0.000000083,,
"SPI","enable",2025-01-30T23:54:15.183740600+00:00,0.000000083,,
"SPI","result",2025-01-30T23:54:15.183742267+00:00,0.000007583,0x27,0x00
"SPI","result",2025-01-30T23:54:15.183752517+00:00,0.000007583,0x00,0x27
"SPI","disable",2025-01-30T23:54:15.183761767+00:00,0.000000083,,
"SPI","disable",2025-01-30T23:54:17.050926850+00:00,0.000000083,,
"SPI","enable",2025-01-30T23:54:17.050939600+00:00,0.000000083,,
