name,type,start_time,duration,"mosi","miso"
"SPI","error",2025-02-04T16:32:35.623060383+00:00,0.001841667,,
"SPI","enable",2025-02-04T16:32:35.734648550+00:00,0.000000083,,
"SPI","disable",2025-02-04T16:32:35.764197217+00:00,0.000000083,,
"SPI","enable",2025-02-04T16:32:35.764562883+00:00,0.000000083,,
"SPI","result",2025-02-04T16:32:35.765631633+00:00,0.000007583,0x10,0x00
"SPI","result",2025-02-04T16:32:35.766151217+00:00,0.000007583,0x00,0x24
"SPI","disable",2025-02-04T16:32:35.766363217+00:00,0.000000083,,
"SPI","enable",2025-02-04T16:32:35.766570217+00:00,0.000000083,,
"SPI","result",2025-02-04T16:32:35.766641050+00:00,0.000007583,0x01,0x00
"SPI","result",2025-02-04T16:32:35.766786967+00:00,0.000007583,0x00,0x04
"SPI","disable",2025-02-04T16:32:35.767323550+00:00,0.000000083,,
"SPI","enable",2025-02-04T16:32:35.767454467+00:00,0.000000083,,
"SPI","result",2025-02-04T16:32:35.767524967+00:00,0.000007583,0x81,0x00
"SPI","result",2025-02-04T16:32:35.767674883+00:00,0.000007583,0x04,0x04
"SPI","disable",2025-02-04T16:32:35.767777967+00:00,0.000000083,,
"SPI","enable",2025-02-04T16:32:35.767824800+00:00,0.000000083,,
"SPI","result",2025-02-04T16:32:35.767925967+00:00,0.000007583,0x27,0x00
"SPI","result",2025-02-04T16:32:35.768070467+00:00,0.000007583,0x00,0x80
"SPI","disable",2025-02-04T16:32:35.768319050+00:00,0.000000083,,
"SPI","enable",2025-02-04T16:32:35.768374133+00:00,0.000000083,,
"SPI","result",2025-02-04T16:32:35.768479467+00:00,0.000007583,0xBC,0x00
"SPI","result",2025-02-04T16:32:35.768623550+00:00,0.000007583,0x8F,0x0F
"SPI","disable",2025-02-04T16:32:35.768723133+00:00,0.000000083,,
"SPI","enable",2025-02-04T16:32:35.768773217+00:00,0.000000083,,
"SPI","result",2025-02-04T16:32:35.768873300+00:00,0.000007583,0xEF,0x00
"SPI","result",2025-02-04T16:32:35.769023467+00:00,0.000007583,0x30,0x00
"SPI","disable",2025-02-04T16:32:35.769122800+00:00,0.000000083,,
"SPI","enable",2025-02-04T16:32:35.769168967+00:00,0.000000083,,
"SPI","result",2025-02-04T16:32:35.769270883+00:00,0.000007583,0xDA,0x00
"SPI","result",2025-02-04T16:32:35.769418883+00:00,0.000007583,0x55,0x55
"SPI","disable",2025-02-04T16:32:35.769518133+00:00,0.000000083,,
"SPI","enable",2025-02-04T16:32:35.769580883+00:00,0.000000083,,
"SPI","result",2025-02-04T16:32:35.769744217+00:00,0.000007583,0xDC,0x00
"SPI","result",2025-02-04T16:32:35.769989883+00:00,0.000007583,0x70,0x70
"SPI","disable",2025-02-04T16:32:35.770057383+00:00,0.000000083,,
"SPI","enable",2025-02-04T16:32:35.770207717+00:00,0.000000083,,
"SPI","result",2025-02-04T16:32:35.770280967+00:00,0.000007583,0x2E,0x00
"SPI","result",2025-02-04T16:32:35.770428717+00:00,0.000007583,0x00,0x98
"SPI","disable",2025-02-04T16:32:35.771378717+00:00,0.000000083,,
"SPI","enable",2025-02-04T16:32:35.771793633+00:00,0.000000083,,
"SPI","result",2025-02-04T16:32:35.771901633+00:00,0.000007583,0xAF,0x00
"SPI","result",2025-02-04T16:32:35.772346300+00:00,0.000007583,0x2D,0x00
"SPI","result",2025-02-04T16:32:35.772354300+00:00,0.000007583,0xD4,0x00
"SPI","disable",2025-02-04T16:32:35.772480800+00:00,0.000000083,,
"SPI","enable",2025-02-04T16:32:35.772544383+00:00,0.000000083,,
"SPI","result",2025-02-04T16:32:35.772670050+00:00,0.000007583,0xAE,0x00
"SPI","result",2025-02-04T16:32:35.772813133+00:00,0.0000075,0x88,0x98
"SPI","disable",2025-02-04T16:32:35.772920717+00:00,0.000000083,,
"SPI","enable",2025-02-04T16:32:35.773330800+00:00,0.000000083,,
"SPI","result",2025-02-04T16:32:35.773442633+00:00,0.000007583,0x82,0x00
"SPI","result",2025-02-04T16:32:35.773645633+00:00,0.000007583,0x01,0x00
"SPI","result",2025-02-04T16:32:35.773653717+00:00,0.000007583,0x00,0x1A
"SPI","result",2025-02-04T16:32:35.773661717+00:00,0.000007583,0x80,0x0B
"SPI","result",2025-02-04T16:32:35.773669717+00:00,0.000007583,0x10,0x00
"SPI","result",2025-02-04T16:32:35.773677800+00:00,0.000007583,0x00,0x52
"SPI","disable",2025-02-04T16:32:35.773759800+00:00,0.000000083,,
"SPI","enable",2025-02-04T16:32:35.773808800+00:00,0.000000083,,
"SPI","result",2025-02-04T16:32:35.773920217+00:00,0.000007583,0x99,0x00
"SPI","result",2025-02-04T16:32:35.774088967+00:00,0.000007583,0xE0,0x86
"SPI","result",2025-02-04T16:32:35.774096967+00:00,0.000007583,0xE0,0x8A
"SPI","disable",2025-02-04T16:32:35.774191300+00:00,0.000000083,,
"SPI","enable",2025-02-04T16:32:35.774242217+00:00,0.000000083,,
"SPI","result",2025-02-04T16:32:35.774325550+00:00,0.000007583,0xB7,0x00
"SPI","result",2025-02-04T16:32:35.774492300+00:00,0.000007583,0xD0,0x10
"SPI","disable",2025-02-04T16:32:35.774609467+00:00,0.000000083,,
"SPI","enable",2025-02-04T16:32:35.774745467+00:00,0.000000083,,
"SPI","result",2025-02-04T16:32:35.774833717+00:00,0.000007583,0xAC,0x00
"SPI","result",2025-02-04T16:32:35.775012967+00:00,0.000007583,0x00,0x00
"SPI","disable",2025-02-04T16:32:35.775105633+00:00,0.000000083,,
"SPI","enable",2025-02-04T16:32:35.775170467+00:00,0.000000083,,
"SPI","result",2025-02-04T16:32:35.775295467+00:00,0.000007583,0xAD,0x00
"SPI","result",2025-02-04T16:32:35.775435550+00:00,0.000007583,0x04,0x03
"SPI","disable",2025-02-04T16:32:35.775544133+00:00,0.000000083,,
"SPI","enable",2025-02-04T16:32:35.775744717+00:00,0.000000083,,
"SPI","result",2025-02-04T16:32:35.775942467+00:00,0.000007583,0x87,0x00
"SPI","result",2025-02-04T16:32:35.776078717+00:00,0.000007583,0x6C,0xE4
"SPI","disable",2025-02-04T16:32:35.776298300+00:00,0.000000083,,
"SPI","enable",2025-02-04T16:32:35.776462800+00:00,0.000000083,,
"SPI","result",2025-02-04T16:32:35.776581633+00:00,0.000007583,0x88,0x00
"SPI","result",2025-02-04T16:32:35.776734133+00:00,0.000007583,0x80,0xC0
"SPI","disable",2025-02-04T16:32:35.776835633+00:00,0.000000083,,
"SPI","enable",2025-02-04T16:32:35.776883217+00:00,0.000000083,,
"SPI","result",2025-02-04T16:32:35.776988133+00:00,0.000007583,0x89,0x00
"SPI","result",2025-02-04T16:32:35.777120550+00:00,0.000007583,0x00,0x00
"SPI","disable",2025-02-04T16:32:35.777230217+00:00,0.000000083,,
"SPI","enable",2025-02-04T16:32:35.777556300+00:00,0.000000083,,
"SPI","result",2025-02-04T16:32:35.777670717+00:00,0.000007583,0x3D,0x00
"SPI","result",2025-02-04T16:32:35.777857800+00:00,0.000007583,0x00,0x02
"SPI","disable",2025-02-04T16:32:35.778488633+00:00,0.000000083,,
"SPI","enable",2025-02-04T16:32:35.778544550+00:00,0.000000083,,
"SPI","result",2025-02-04T16:32:35.778657300+00:00,0.000007583,0xBD,0x00
"SPI","result",2025-02-04T16:32:35.778813967+00:00,0.000007583,0x02,0x02
"SPI","disable",2025-02-04T16:32:35.778909467+00:00,0.000000083,,
"SPI","enable",2025-02-04T16:32:35.779279217+00:00,0.000000083,,
"SPI","result",2025-02-04T16:32:35.779395550+00:00,0.000007583,0x91,0x00
"SPI","result",2025-02-04T16:32:35.779548300+00:00,0.000007583,0x9F,0x9F
"SPI","disable",2025-02-04T16:32:35.779649633+00:00,0.000000083,,
"SPI","enable",2025-02-04T16:32:35.779795383+00:00,0.000000083,,
"SPI","result",2025-02-04T16:32:35.779895800+00:00,0.000007583,0x91,0x00
"SPI","result",2025-02-04T16:32:35.780046050+00:00,0.000007583,0x7F,0x9F
"SPI","disable",2025-02-04T16:32:35.780136967+00:00,0.000000083,,
"SPI","enable",2025-02-04T16:32:35.780198967+00:00,0.000000083,,
"SPI","result",2025-02-04T16:32:35.780296133+00:00,0.000007583,0x87,0x00
"SPI","result",2025-02-04T16:32:35.780440383+00:00,0.000007583,0xE4,0x6C
"SPI","disable",2025-02-04T16:32:35.780527133+00:00,0.000000083,,
"SPI","enable",2025-02-04T16:32:35.780579300+00:00,0.000000083,,
"SPI","result",2025-02-04T16:32:35.780677800+00:00,0.000007583,0x88,0x00
"SPI","result",2025-02-04T16:32:35.780817717+00:00,0.000007583,0xC0,0x80
"SPI","disable",2025-02-04T16:32:35.780923717+00:00,0.000000083,,
"SPI","enable",2025-02-04T16:32:35.780973133+00:00,0.000000083,,
"SPI","result",2025-02-04T16:32:35.781088383+00:00,0.000007583,0x89,0x00
"SPI","result",2025-02-04T16:32:35.781222550+00:00,0.000007583,0x00,0x00
"SPI","disable",2025-02-04T16:32:35.781420633+00:00,0.000000083,,
"SPI","enable",2025-02-04T16:32:35.782955883+00:00,0.000000083,,
"SPI","result",2025-02-04T16:32:35.783148800+00:00,0.000007583,0x80,0x00
"SPI","result",2025-02-04T16:32:35.783300050+00:00,0.000007583,0x10,0x00
"SPI","result",2025-02-04T16:32:35.783515467+00:00,0.000007583,0xFF,0x10
"SPI","result",2025-02-04T16:32:35.783645383+00:00,0.0000075,0xFF,0x10
"SPI","result",2025-02-04T16:32:35.783795883+00:00,0.000007583,0x00,0x10
"SPI","result",2025-02-04T16:32:35.783939633+00:00,0.000007583,0x00,0x10
"SPI","result",2025-02-04T16:32:35.784085133+00:00,0.000007583,0xCD,0x10
"SPI","result",2025-02-04T16:32:35.784230300+00:00,0.000007583,0xCC,0x10
"SPI","result",2025-02-04T16:32:35.784385133+00:00,0.000007583,0x44,0x10
"SPI","result",2025-02-04T16:32:35.784537883+00:00,0.000007583,0x41,0x10
"SPI","result",2025-02-04T16:32:35.784685383+00:00,0.000007583,0x66,0x10
"SPI","result",2025-02-04T16:32:35.784830467+00:00,0.0000075,0x66,0x10
"SPI","result",2025-02-04T16:32:35.784985300+00:00,0.000007583,0x36,0x10
"SPI","result",2025-02-04T16:32:35.785130550+00:00,0.000007583,0x42,0x10
"SPI","result",2025-02-04T16:32:35.785393633+00:00,0.000007583,0xCD,0x10
"SPI","result",2025-02-04T16:32:35.785533217+00:00,0.000007583,0xCC,0x10
"SPI","result",2025-02-04T16:32:35.785680883+00:00,0.000007583,0x6C,0x10
"SPI","result",2025-02-04T16:32:35.785833967+00:00,0.000007583,0x40,0x10
"SPI","disable",2025-02-04T16:32:35.785929300+00:00,0.000000083,,
"SPI","enable",2025-02-04T16:32:35.786045550+00:00,0.000000083,,
"SPI","result",2025-02-04T16:32:35.786112383+00:00,0.000007583,0xDA,0x10
"SPI","result",2025-02-04T16:32:35.786266550+00:00,0.000007583,0x5D,0x55
"SPI","disable",2025-02-04T16:32:35.786312467+00:00,0.000000083,,
"SPI","enable",2025-02-04T16:32:35.786362383+00:00,0.000000083,,
"SPI","result",2025-02-04T16:32:35.786546967+00:00,0.000007583,0xDC,0x10
"SPI","result",2025-02-04T16:32:35.786735883+00:00,0.000007583,0x7C,0x70
"SPI","disable",2025-02-04T16:32:35.786866300+00:00,0.000000083,,
"SPI","enable",2025-02-04T16:32:35.786921383+00:00,0.000000083,,
"SPI","result",2025-02-04T16:32:35.787014717+00:00,0.000007583,0xA5,0x10
"SPI","result",2025-02-04T16:32:35.787172050+00:00,0.000007583,0x00,0x00
"SPI","disable",2025-02-04T16:32:35.787269383+00:00,0.000000083,,
"SPI","enable",2025-02-04T16:32:35.787321883+00:00,0.000000083,,
"SPI","result",2025-02-04T16:32:35.787421383+00:00,0.000007583,0x01,0x10
"SPI","result",2025-02-04T16:32:35.787574800+00:00,0.000007583,0x00,0x04
"SPI","disable",2025-02-04T16:32:35.788334383+00:00,0.000000083,,
"SPI","enable",2025-02-04T16:32:35.788391300+00:00,0.000000083,,
"SPI","result",2025-02-04T16:32:35.788494550+00:00,0.0000075,0x81,0x10
"SPI","result",2025-02-04T16:32:35.788638883+00:00,0.000007583,0x0C,0x04
"SPI","disable",2025-02-04T16:32:35.788744800+00:00,0.000000083,,
"SPI","enable",2025-02-04T16:32:35.788796633+00:00,0.000000083,,
"SPI","result",2025-02-04T16:32:35.788888633+00:00,0.000007583,0x27,0x10
"SPI","result",2025-02-04T16:32:35.789033717+00:00,0.000007583,0x00,0xA0
"SPI","disable",2025-02-04T16:32:35.789320550+00:00,0.000000083,,
"SPI","enable",2025-02-04T16:32:35.789362050+00:00,0.000000083,,
"SPI","result",2025-02-04T16:32:35.789479967+00:00,0.000007583,0xDA,0x00
"SPI","result",2025-02-04T16:32:35.789611383+00:00,0.000007583,0x55,0x5D
"SPI","disable",2025-02-04T16:32:35.789715633+00:00,0.000000083,,
"SPI","enable",2025-02-04T16:32:35.789766467+00:00,0.000000083,,
"SPI","result",2025-02-04T16:32:35.789861217+00:00,0.000007583,0xDC,0x00
"SPI","result",2025-02-04T16:32:35.790025383+00:00,0.000007583,0x70,0x7C
"SPI","disable",2025-02-04T16:32:35.790115883+00:00,0.000000083,,
"SPI","enable",2025-02-04T16:32:35.790173550+00:00,0.000000083,,
"SPI","result",2025-02-04T16:32:35.790267717+00:00,0.000007583,0x01,0x00
"SPI","result",2025-02-04T16:32:35.790424383+00:00,0.000007583,0x00,0x0C
"SPI","disable",2025-02-04T16:32:35.791312967+00:00,0.000000083,,
"SPI","enable",2025-02-04T16:32:35.791371550+00:00,0.000000083,,
"SPI","result",2025-02-04T16:32:35.791480383+00:00,0.000007583,0x81,0x00
"SPI","result",2025-02-04T16:32:35.791613133+00:00,0.000007583,0x04,0x0C
"SPI","disable",2025-02-04T16:32:35.791730800+00:00,0.000000083,,
"SPI","enable",2025-02-04T16:32:35.791762467+00:00,0.000000083,,
"SPI","result",2025-02-04T16:32:35.791877300+00:00,0.000007583,0x27,0x10
"SPI","result",2025-02-04T16:32:35.792016800+00:00,0.000007583,0x00,0x80
"SPI","disable",2025-02-04T16:32:35.792301717+00:00,0.000000083,,
"SPI","enable",2025-02-04T16:32:35.792547133+00:00,0.000000083,,
"SPI","result",2025-02-04T16:32:35.792618967+00:00,0.000007583,0xDA,0x10
"SPI","result",2025-02-04T16:32:35.792763300+00:00,0.000007583,0x55,0x55
"SPI","disable",2025-02-04T16:32:35.792862883+00:00,0.000000083,,
"SPI","enable",2025-02-04T16:32:35.792921467+00:00,0.000000083,,
"SPI","result",2025-02-04T16:32:35.793013217+00:00,0.000007583,0xDC,0x10
"SPI","result",2025-02-04T16:32:35.793162967+00:00,0.000007583,0x70,0x70
"SPI","disable",2025-02-04T16:32:35.793266467+00:00,0.000000083,,
"SPI","enable",2025-02-04T16:32:35.793318383+00:00,0.000000083,,
"SPI","result",2025-02-04T16:32:35.793422883+00:00,0.000007583,0xA5,0x10
"SPI","result",2025-02-04T16:32:35.793568133+00:00,0.000007583,0x40,0x00
"SPI","disable",2025-02-04T16:32:35.793662717+00:00,0.000000083,,
"SPI","enable",2025-02-04T16:32:35.793713300+00:00,0.000000083,,
"SPI","result",2025-02-04T16:32:35.793818217+00:00,0.000007583,0x01,0x10
"SPI","result",2025-02-04T16:32:35.794085967+00:00,0.000007583,0x00,0x04
"SPI","disable",2025-02-04T16:32:35.794302967+00:00,0.000000083,,
"SPI","enable",2025-02-04T16:32:35.794348467+00:00,0.000000083,,
"SPI","result",2025-02-04T16:32:35.794455217+00:00,0.000007583,0x81,0x10
"SPI","result",2025-02-04T16:32:35.794597717+00:00,0.0000075,0x10,0x04
"SPI","disable",2025-02-04T16:32:35.794702967+00:00,0.000000083,,
"SPI","enable",2025-02-04T16:32:35.794770967+00:00,0.000000083,,
"SPI","result",2025-02-04T16:32:35.794854883+00:00,0.000007583,0x27,0x10
"SPI","result",2025-02-04T16:32:35.795002383+00:00,0.000007583,0x00,0xD8
"SPI","disable",2025-02-04T16:32:35.795363050+00:00,0.000000083,,
"SPI","enable",2025-02-04T16:32:35.795428133+00:00,0.000000083,,
"SPI","result",2025-02-04T16:32:35.795517550+00:00,0.000007583,0x28,0x10
"SPI","result",2025-02-04T16:32:35.795658717+00:00,0.000007583,0x00,0x00
"SPI","disable",2025-02-04T16:32:35.796375550+00:00,0.000000083,,
"SPI","enable",2025-02-04T16:32:35.796408883+00:00,0.000000083,,
"SPI","result",2025-02-04T16:32:35.796519883+00:00,0.000007583,0x28,0x10
"SPI","result",2025-02-04T16:32:35.796672550+00:00,0.000007583,0x00,0x00
"SPI","disable",2025-02-04T16:32:35.797390133+00:00,0.000000083,,
"SPI","enable",2025-02-04T16:32:35.797522800+00:00,0.000000083,,
"SPI","result",2025-02-04T16:32:35.797593883+00:00,0.000007583,0x28,0x10
"SPI","result",2025-02-04T16:32:35.797743050+00:00,0.000007583,0x00,0x00
"SPI","disable",2025-02-04T16:32:35.798328383+00:00,0.000000083,,
"SPI","enable",2025-02-04T16:32:35.798369633+00:00,0.000000083,,
"SPI","result",2025-02-04T16:32:35.798458633+00:00,0.000007583,0x28,0x10
"SPI","result",2025-02-04T16:32:35.798689383+00:00,0.000007583,0x00,0x00
"SPI","disable",2025-02-04T16:32:35.799388133+00:00,0.000000083,,
"SPI","enable",2025-02-04T16:32:35.799491467+00:00,0.000000083,,
"SPI","result",2025-02-04T16:32:35.799615217+00:00,0.000007583,0x28,0x10
"SPI","result",2025-02-04T16:32:35.799729967+00:00,0.000007583,0x00,0x00
"SPI","disable",2025-02-04T16:32:35.800424300+00:00,0.000000083,,
"SPI","enable",2025-02-04T16:32:35.800502633+00:00,0.000000083,,
"SPI","result",2025-02-04T16:32:35.800579217+00:00,0.000007583,0x28,0x10
"SPI","result",2025-02-04T16:32:35.800726800+00:00,0.000007583,0x00,0x00
"SPI","disable",2025-02-04T16:32:35.801318800+00:00,0.000000083,,
"SPI","enable",2025-02-04T16:32:35.801373967+00:00,0.000000083,,
"SPI","result",2025-02-04T16:32:35.801541133+00:00,0.000007583,0x28,0x10
"SPI","result",2025-02-04T16:32:35.801661383+00:00,0.000007583,0x00,0x66
"SPI","disable",2025-02-04T16:32:35.802345467+00:00,0.000000083,,
"SPI","enable",2025-02-04T16:32:35.802798467+00:00,0.000000083,,
"SPI","result",2025-02-04T16:32:35.802941550+00:00,0.000007583,0x28,0x10
"SPI","result",2025-02-04T16:32:35.803141050+00:00,0.0000075,0x00,0x66
"SPI","disable",2025-02-04T16:32:35.803309550+00:00,0.000000083,,
"SPI","enable",2025-02-04T16:32:35.803765800+00:00,0.000000083,,
"SPI","result",2025-02-04T16:32:35.803846383+00:00,0.000007583,0x24,0x10
"SPI","result",2025-02-04T16:32:35.804001217+00:00,0.000007583,0x00,0x54
"SPI","disable",2025-02-04T16:32:35.804313967+00:00,0.000000083,,
"SPI","enable",2025-02-04T16:32:35.806190383+00:00,0.000000083,,
"SPI","result",2025-02-04T16:32:35.806270967+00:00,0.000007583,0xDA,0x10
"SPI","result",2025-02-04T16:32:35.806424633+00:00,0.000007583,0x55,0x55
"SPI","disable",2025-02-04T16:32:35.806515050+00:00,0.000000083,,
"SPI","enable",2025-02-04T16:32:35.806571383+00:00,0.000000083,,
"SPI","result",2025-02-04T16:32:35.806674633+00:00,0.000007583,0xDC,0x10
"SPI","result",2025-02-04T16:32:35.806822217+00:00,0.000007583,0x70,0x70
"SPI","disable",2025-02-04T16:32:35.806926467+00:00,0.000000083,,
"SPI","enable",2025-02-04T16:32:35.806982967+00:00,0.000000083,,
"SPI","result",2025-02-04T16:32:35.807071800+00:00,0.000007583,0x01,0x10
"SPI","result",2025-02-04T16:32:35.807230883+00:00,0.000007583,0x00,0x10
"SPI","disable",2025-02-04T16:32:35.808348967+00:00,0.000000083,,
"SPI","enable",2025-02-04T16:32:35.808379050+00:00,0.000000083,,
"SPI","result",2025-02-04T16:32:35.808510633+00:00,0.000007583,0x81,0x10
"SPI","result",2025-02-04T16:32:35.808868133+00:00,0.000007583,0x04,0x10
"SPI","disable",2025-02-04T16:32:35.809015883+00:00,0.000000083,,
"SPI","enable",2025-02-04T16:32:35.809066050+00:00,0.000000083,,
"SPI","result",2025-02-04T16:32:35.809156050+00:00,0.000007583,0x27,0x10
"SPI","result",2025-02-04T16:32:35.809353133+00:00,0.000007583,0x00,0x80
"SPI","disable",2025-02-04T16:32:35.810331133+00:00,0.000000083,,
"SPI","enable",2025-02-04T16:32:35.810622633+00:00,0.000000083,,
"SPI","result",2025-02-04T16:32:35.810701800+00:00,0.000007583,0x00,0x10
"SPI","result",2025-02-04T16:32:35.810885883+00:00,0.000007583,0x00,0x10
"SPI","result",2025-02-04T16:32:35.811473800+00:00,0.000007583,0x00,0xFF
"SPI","result",2025-02-04T16:32:35.812444883+00:00,0.000007583,0x00,0xFF
"SPI","result",2025-02-04T16:32:35.813396467+00:00,0.000007583,0x00,0x00
"SPI","result",2025-02-04T16:32:35.814404550+00:00,0.000007583,0x00,0x00
"SPI","result",2025-02-04T16:32:35.815389383+00:00,0.000007583,0x00,0x00
"SPI","result",2025-02-04T16:32:35.816479383+00:00,0.000007583,0x00,0x00
"SPI","result",2025-02-04T16:32:35.817735217+00:00,0.000007583,0x00,0xC8
"SPI","result",2025-02-04T16:32:35.818366967+00:00,0.000007583,0x00,0x41
"SPI","result",2025-02-04T16:32:35.819371883+00:00,0.000007583,0x00,0x00
"SPI","result",2025-02-04T16:32:35.820367550+00:00,0.000007583,0x00,0x00
"SPI","result",2025-02-04T16:32:35.821366883+00:00,0.000007583,0x00,0x48
"SPI","result",2025-02-04T16:32:35.822329467+00:00,0.000007583,0x00,0x42
"SPI","result",2025-02-04T16:32:35.823426883+00:00,0.000007583,0x00,0x33
"SPI","result",2025-02-04T16:32:35.824364467+00:00,0.000007583,0x00,0x33
"SPI","result",2025-02-04T16:32:35.825368800+00:00,0.000007583,0x00,0x53
"SPI","result",2025-02-04T16:32:35.826329383+00:00,0.000007583,0x00,0x40
"SPI","disable",2025-02-04T16:32:35.827380467+00:00,0.000000083,,
"SPI","enable",2025-02-04T16:32:35.827596133+00:00,0.000000083,,
"SPI","result",2025-02-04T16:32:35.827695133+00:00,0.000007583,0xDA,0x00
"SPI","result",2025-02-04T16:32:35.827820133+00:00,0.000007583,0x55,0x55
"SPI","disable",2025-02-04T16:32:35.827913800+00:00,0.000000083,,
"SPI","enable",2025-02-04T16:32:35.827963217+00:00,0.000000083,,
"SPI","result",2025-02-04T16:32:35.828069883+00:00,0.0000075,0xDC,0x00
"SPI","result",2025-02-04T16:32:35.828215300+00:00,0.000007583,0x70,0x70
"SPI","disable",2025-02-04T16:32:35.828319217+00:00,0.000000083,,
"SPI","enable",2025-02-04T16:32:35.828363467+00:00,0.000000083,,
"SPI","result",2025-02-04T16:32:35.828467633+00:00,0.000007583,0xA5,0x00
"SPI","result",2025-02-04T16:32:35.828627633+00:00,0.000007583,0x40,0x40
"SPI","disable",2025-02-04T16:32:35.828720633+00:00,0.000000083,,
"SPI","enable",2025-02-04T16:32:35.828948550+00:00,0.000000083,,
"SPI","result",2025-02-04T16:32:35.829021217+00:00,0.000007583,0x01,0x00
"SPI","result",2025-02-04T16:32:35.829187633+00:00,0.000007583,0x00,0x04
"SPI","disable",2025-02-04T16:32:35.829363133+00:00,0.000000083,,
"SPI","enable",2025-02-04T16:32:35.829429133+00:00,0.000000083,,
"SPI","result",2025-02-04T16:32:35.829517050+00:00,0.000007583,0x81,0x00
"SPI","result",2025-02-04T16:32:35.829815300+00:00,0.000007583,0x10,0x04
"SPI","disable",2025-02-04T16:32:35.829903133+00:00,0.000000083,,
"SPI","enable",2025-02-04T16:32:35.829952383+00:00,0.000000083,,
"SPI","result",2025-02-04T16:32:35.830052800+00:00,0.000007583,0x27,0x10
"SPI","result",2025-02-04T16:32:35.830202967+00:00,0.000007583,0x00,0xD8
"SPI","disable",2025-02-04T16:32:35.831303717+00:00,0.000000083,,
