name,type,start_time,duration,"mosi","miso"
"SPI","enable",2025-02-05T00:12:28.909808733+00:00,0.000000083,,
"SPI","result",2025-02-05T00:12:28.913899900+00:00,0.000015083,0x00,0x00
"SPI","result",2025-02-05T00:12:28.913915900+00:00,0.000015083,0x00,0x00
"SPI","result",2025-02-05T00:12:28.913931900+00:00,0.000015083,0x00,0x00
"SPI","result",2025-02-05T00:12:28.913947900+00:00,0.000015083,0x00,0x00
"SPI","disable",2025-02-05T00:12:28.951056983+00:00,0.000000083,,
"SPI","enable",2025-02-05T00:12:28.951491233+00:00,0.000000083,,
"SPI","result",2025-02-05T00:12:28.951897150+00:00,0.000015083,0x10,0x00
"SPI","result",2025-02-05T00:12:28.952068067+00:00,0.000015083,0x00,0x24
"SPI","disable",2025-02-05T00:12:28.952219400+00:00,0.000000083,,
"SPI","enable",2025-02-05T00:12:28.952667650+00:00,0.000000083,,
"SPI","result",2025-02-05T00:12:28.952902733+00:00,0.000015083,0x01,0x00
"SPI","result",2025-02-05T00:12:28.953034067+00:00,0.000015083,0x00,0x04
"SPI","disable",2025-02-05T00:12:28.953191483+00:00,0.000000083,,
"SPI","enable",2025-02-05T00:12:28.953428900+00:00,0.000000083,,
"SPI","result",2025-02-05T00:12:28.953640233+00:00,0.000015083,0x81,0x00
"SPI","result",2025-02-05T00:12:28.953761150+00:00,0.000015083,0x04,0x04
"SPI","disable",2025-02-05T00:12:28.953854817+00:00,0.000000083,,
"SPI","enable",2025-02-05T00:12:28.954025650+00:00,0.000000083,,
"SPI","result",2025-02-05T00:12:28.954212733+00:00,0.000015083,0x27,0x00
"SPI","result",2025-02-05T00:12:28.954322400+00:00,0.000015083,0x00,0x80
"SPI","disable",2025-02-05T00:12:28.954452400+00:00,0.000000083,,
"SPI","enable",2025-02-05T00:12:28.954699733+00:00,0.000000083,,
"SPI","result",2025-02-05T00:12:28.954902900+00:00,0.000015083,0xBC,0x00
"SPI","result",2025-02-05T00:12:28.955018400+00:00,0.000015083,0x8F,0x0F
"SPI","disable",2025-02-05T00:12:28.955112817+00:00,0.000000083,,
"SPI","enable",2025-02-05T00:12:28.955292233+00:00,0.000000083,,
"SPI","result",2025-02-05T00:12:28.955458400+00:00,0.000015083,0xEF,0x00
"SPI","result",2025-02-05T00:12:28.955572650+00:00,0.000015083,0x30,0x00
"SPI","disable",2025-02-05T00:12:28.955661567+00:00,0.000000083,,
"SPI","enable",2025-02-05T00:12:28.955832650+00:00,0.000000083,,
"SPI","result",2025-02-05T00:12:28.955997233+00:00,0.000015083,0xDA,0x00
"SPI","result",2025-02-05T00:12:28.956114067+00:00,0.000015083,0x55,0x55
"SPI","disable",2025-02-05T00:12:28.956210150+00:00,0.000000083,,
"SPI","enable",2025-02-05T00:12:28.956380400+00:00,0.000000083,,
"SPI","result",2025-02-05T00:12:28.956553233+00:00,0.000015083,0xDC,0x00
"SPI","result",2025-02-05T00:12:28.956660150+00:00,0.000015083,0x70,0x70
"SPI","disable",2025-02-05T00:12:28.956750900+00:00,0.000000083,,
"SPI","enable",2025-02-05T00:12:28.957110150+00:00,0.000000083,,
"SPI","result",2025-02-05T00:12:28.957354983+00:00,0.000015083,0x2E,0x00
"SPI","result",2025-02-05T00:12:28.957490817+00:00,0.000015083,0x00,0x98
"SPI","disable",2025-02-05T00:12:28.957635150+00:00,0.000000083,,
"SPI","enable",2025-02-05T00:12:28.957941650+00:00,0.000000083,,
"SPI","result",2025-02-05T00:12:28.958169900+00:00,0.000015083,0xAF,0x00
"SPI","result",2025-02-05T00:12:28.958322150+00:00,0.000015083,0x2D,0x00
"SPI","result",2025-02-05T00:12:28.958338150+00:00,0.000015083,0xD4,0x00
"SPI","disable",2025-02-05T00:12:28.958439067+00:00,0.000000083,,
"SPI","enable",2025-02-05T00:12:28.958697483+00:00,0.000000083,,
"SPI","result",2025-02-05T00:12:28.958921150+00:00,0.000015083,0xAE,0x00
"SPI","result",2025-02-05T00:12:28.959040233+00:00,0.000015083,0x88,0x98
"SPI","disable",2025-02-05T00:12:28.959138983+00:00,0.000000083,,
"SPI","enable",2025-02-05T00:12:28.959699817+00:00,0.000000083,,
"SPI","result",2025-02-05T00:12:28.959932567+00:00,0.000015083,0x82,0x00
"SPI","result",2025-02-05T00:12:28.960090650+00:00,0.000015083,0x01,0x00
"SPI","result",2025-02-05T00:12:28.960106650+00:00,0.000015083,0x00,0x1A
"SPI","result",2025-02-05T00:12:28.960122650+00:00,0.000015083,0x80,0x0B
"SPI","result",2025-02-05T00:12:28.960138650+00:00,0.000015083,0x10,0x00
"SPI","result",2025-02-05T00:12:28.960154650+00:00,0.000015083,0x00,0x52
"SPI","disable",2025-02-05T00:12:28.960258567+00:00,0.000000083,,
"SPI","enable",2025-02-05T00:12:28.960575733+00:00,0.000000083,,
"SPI","result",2025-02-05T00:12:28.960766233+00:00,0.000015083,0x99,0x00
"SPI","result",2025-02-05T00:12:28.960893067+00:00,0.000015083,0xE0,0x86
"SPI","result",2025-02-05T00:12:28.960909067+00:00,0.000015083,0xE0,0x8A
"SPI","disable",2025-02-05T00:12:28.961012233+00:00,0.000000083,,
"SPI","enable",2025-02-05T00:12:28.961214400+00:00,0.000000083,,
"SPI","result",2025-02-05T00:12:28.961379733+00:00,0.000015083,0xB7,0x00
"SPI","result",2025-02-05T00:12:28.961486067+00:00,0.000015083,0xD0,0x10
"SPI","disable",2025-02-05T00:12:28.961584483+00:00,0.000000083,,
"SPI","enable",2025-02-05T00:12:28.961789483+00:00,0.000000083,,
"SPI","result",2025-02-05T00:12:28.961973900+00:00,0.000015083,0xAC,0x00
"SPI","result",2025-02-05T00:12:28.962079733+00:00,0.000015083,0x00,0x00
"SPI","disable",2025-02-05T00:12:28.962177983+00:00,0.000000083,,
"SPI","enable",2025-02-05T00:12:28.962363400+00:00,0.000000083,,
"SPI","result",2025-02-05T00:12:28.962574400+00:00,0.000015083,0xAD,0x00
"SPI","result",2025-02-05T00:12:28.962688983+00:00,0.000015083,0x04,0x03
"SPI","disable",2025-02-05T00:12:28.962810983+00:00,0.000000083,,
"SPI","enable",2025-02-05T00:12:28.963191400+00:00,0.000000083,,
"SPI","result",2025-02-05T00:12:28.963458067+00:00,0.000015083,0x87,0x00
"SPI","result",2025-02-05T00:12:28.963575900+00:00,0.000015083,0x6C,0xE4
"SPI","disable",2025-02-05T00:12:28.963693733+00:00,0.000000083,,
"SPI","enable",2025-02-05T00:12:28.963881733+00:00,0.000000083,,
"SPI","result",2025-02-05T00:12:28.964066817+00:00,0.000015083,0x88,0x00
"SPI","result",2025-02-05T00:12:28.964179567+00:00,0.000015083,0x80,0xC0
"SPI","disable",2025-02-05T00:12:28.964283317+00:00,0.000000083,,
"SPI","enable",2025-02-05T00:12:28.964461733+00:00,0.000000083,,
"SPI","result",2025-02-05T00:12:28.964647067+00:00,0.000015083,0x89,0x00
"SPI","result",2025-02-05T00:12:28.964759817+00:00,0.000015083,0x00,0x00
"SPI","disable",2025-02-05T00:12:28.964857983+00:00,0.000000083,,
"SPI","enable",2025-02-05T00:12:28.965194817+00:00,0.000000083,,
"SPI","result",2025-02-05T00:12:28.965430483+00:00,0.000015083,0x3D,0x00
"SPI","result",2025-02-05T00:12:28.965574150+00:00,0.000015083,0x00,0x02
"SPI","disable",2025-02-05T00:12:28.965729650+00:00,0.000000083,,
"SPI","enable",2025-02-05T00:12:28.965962233+00:00,0.000000083,,
"SPI","result",2025-02-05T00:12:28.966169733+00:00,0.000015083,0xBD,0x00
"SPI","result",2025-02-05T00:12:28.966299400+00:00,0.000015083,0x02,0x02
"SPI","disable",2025-02-05T00:12:28.966404650+00:00,0.000000083,,
"SPI","enable",2025-02-05T00:12:28.966739483+00:00,0.000000083,,
"SPI","result",2025-02-05T00:12:28.966980233+00:00,0.000015083,0x91,0x00
"SPI","result",2025-02-05T00:12:28.967116400+00:00,0.000015083,0x9F,0x9F
"SPI","disable",2025-02-05T00:12:28.967229983+00:00,0.000000083,,
"SPI","enable",2025-02-05T00:12:28.969346233+00:00,0.000000083,,
"SPI","result",2025-02-05T00:12:28.969789067+00:00,0.000015083,0x91,0x00
"SPI","result",2025-02-05T00:12:28.969939567+00:00,0.000015083,0x5F,0x9F
"SPI","disable",2025-02-05T00:12:28.970053650+00:00,0.000000083,,
"SPI","enable",2025-02-05T00:12:28.970374483+00:00,0.000000083,,
"SPI","result",2025-02-05T00:12:28.970583900+00:00,0.000015083,0x87,0x00
"SPI","result",2025-02-05T00:12:28.970718567+00:00,0.000015083,0xE4,0x6C
"SPI","disable",2025-02-05T00:12:28.970824900+00:00,0.000000083,,
"SPI","enable",2025-02-05T00:12:28.971013233+00:00,0.000000083,,
"SPI","result",2025-02-05T00:12:28.971191233+00:00,0.000015083,0x88,0x00
"SPI","result",2025-02-05T00:12:28.971308400+00:00,0.000015083,0xC0,0x80
"SPI","disable",2025-02-05T00:12:28.971407150+00:00,0.000000083,,
"SPI","enable",2025-02-05T00:12:28.971586567+00:00,0.000000083,,
"SPI","result",2025-02-05T00:12:28.971752567+00:00,0.000015083,0x89,0x00
"SPI","result",2025-02-05T00:12:28.971862150+00:00,0.000015083,0x00,0x00
"SPI","disable",2025-02-05T00:12:28.971955567+00:00,0.000000083,,
"SPI","enable",2025-02-05T00:12:28.973679983+00:00,0.000000083,,
"SPI","result",2025-02-05T00:12:28.974146650+00:00,0.000015083,0x80,0x00
"SPI","result",2025-02-05T00:12:28.974423650+00:00,0.000015083,0x10,0x00
"SPI","result",2025-02-05T00:12:28.974639233+00:00,0.000015083,0xFF,0x10
"SPI","result",2025-02-05T00:12:28.974836317+00:00,0.000015083,0xFF,0x10
"SPI","result",2025-02-05T00:12:28.975040067+00:00,0.000015083,0x00,0x10
"SPI","result",2025-02-05T00:12:28.975240817+00:00,0.000015083,0x00,0x10
"SPI","result",2025-02-05T00:12:28.975547400+00:00,0.000015083,0xCD,0x10
"SPI","result",2025-02-05T00:12:28.975804400+00:00,0.000015083,0xCC,0x10
"SPI","result",2025-02-05T00:12:28.976060567+00:00,0.000015083,0x44,0x10
"SPI","result",2025-02-05T00:12:28.976319983+00:00,0.000015083,0x41,0x10
"SPI","result",2025-02-05T00:12:28.976570150+00:00,0.000015083,0x85,0x10
"SPI","result",2025-02-05T00:12:28.976828317+00:00,0.000015083,0xEB,0x10
"SPI","result",2025-02-05T00:12:28.977092233+00:00,0.000015083,0x91,0x10
"SPI","result",2025-02-05T00:12:28.977350900+00:00,0.000015083,0x40,0x10
"SPI","result",2025-02-05T00:12:28.977963650+00:00,0.000015083,0x9A,0x10
"SPI","result",2025-02-05T00:12:28.978353650+00:00,0.000015083,0x99,0x10
"SPI","result",2025-02-05T00:12:28.978666900+00:00,0.000015083,0xF9,0x10
"SPI","result",2025-02-05T00:12:28.978953483+00:00,0.000015083,0x40,0x10
"SPI","disable",2025-02-05T00:12:28.979214733+00:00,0.000000083,,
"SPI","enable",2025-02-05T00:12:28.979540483+00:00,0.000000083,,
"SPI","result",2025-02-05T00:12:28.979755483+00:00,0.000015083,0xA5,0x10
"SPI","result",2025-02-05T00:12:28.979873983+00:00,0.000015083,0x00,0x00
"SPI","disable",2025-02-05T00:12:28.979985400+00:00,0.000000083,,
"SPI","enable",2025-02-05T00:12:28.980203817+00:00,0.000000083,,
"SPI","result",2025-02-05T00:12:28.980359317+00:00,0.000015083,0x01,0x10
"SPI","result",2025-02-05T00:12:28.980477067+00:00,0.000015083,0x00,0x04
"SPI","disable",2025-02-05T00:12:28.980626067+00:00,0.000000083,,
"SPI","enable",2025-02-05T00:12:28.980814900+00:00,0.000000083,,
"SPI","result",2025-02-05T00:12:28.980984650+00:00,0.000015083,0x81,0x10
"SPI","result",2025-02-05T00:12:28.981099483+00:00,0.000015083,0x0C,0x04
"SPI","disable",2025-02-05T00:12:28.981201983+00:00,0.000000083,,
"SPI","enable",2025-02-05T00:12:28.981381483+00:00,0.000000083,,
"SPI","result",2025-02-05T00:12:28.981543900+00:00,0.000015083,0x27,0x0D
"SPI","result",2025-02-05T00:12:28.981650900+00:00,0.000015083,0x00,0xB0
"SPI","disable",2025-02-05T00:12:28.981800733+00:00,0.000000083,,
"SPI","enable",2025-02-05T00:12:28.982073483+00:00,0.000000083,,
"SPI","result",2025-02-05T00:12:28.982265233+00:00,0.000015083,0x01,0x00
"SPI","result",2025-02-05T00:12:28.982386983+00:00,0.000015083,0x00,0x0C
"SPI","disable",2025-02-05T00:12:28.982553067+00:00,0.000000083,,
"SPI","enable",2025-02-05T00:12:28.982802567+00:00,0.000000083,,
"SPI","result",2025-02-05T00:12:28.982994233+00:00,0.000015083,0x81,0x00
"SPI","result",2025-02-05T00:12:28.983111567+00:00,0.000015083,0x04,0x0C
"SPI","disable",2025-02-05T00:12:28.983221067+00:00,0.000000083,,
"SPI","enable",2025-02-05T00:12:28.983398400+00:00,0.000000083,,
"SPI","result",2025-02-05T00:12:28.983555567+00:00,0.000015083,0x27,0x10
"SPI","result",2025-02-05T00:12:28.983663067+00:00,0.000015083,0x00,0x80
"SPI","disable",2025-02-05T00:12:28.983813150+00:00,0.000000083,,
"SPI","enable",2025-02-05T00:12:28.984955817+00:00,0.000000083,,
"SPI","result",2025-02-05T00:12:28.985365483+00:00,0.000015083,0xA5,0x10
"SPI","result",2025-02-05T00:12:28.985528233+00:00,0.000015083,0x40,0x00
"SPI","disable",2025-02-05T00:12:28.985650817+00:00,0.000000083,,
"SPI","enable",2025-02-05T00:12:28.985854817+00:00,0.000000083,,
"SPI","result",2025-02-05T00:12:28.986041317+00:00,0.000015083,0x01,0x10
"SPI","result",2025-02-05T00:12:28.986167483+00:00,0.000015083,0x00,0x04
"SPI","disable",2025-02-05T00:12:28.986329400+00:00,0.000000083,,
"SPI","enable",2025-02-05T00:12:28.986525483+00:00,0.000000083,,
"SPI","result",2025-02-05T00:12:28.986713817+00:00,0.000015083,0x81,0x10
"SPI","result",2025-02-05T00:12:28.986840567+00:00,0.000015083,0x10,0x04
"SPI","disable",2025-02-05T00:12:28.986940900+00:00,0.000000083,,
"SPI","enable",2025-02-05T00:12:28.987101817+00:00,0.000000083,,
"SPI","result",2025-02-05T00:12:28.987278150+00:00,0.000015083,0x27,0x10
"SPI","result",2025-02-05T00:12:28.987404150+00:00,0.000015083,0x00,0xD8
"SPI","disable",2025-02-05T00:12:28.987575483+00:00,0.000000083,,
"SPI","enable",2025-02-05T00:12:28.987959817+00:00,0.000000083,,
"SPI","result",2025-02-05T00:12:28.988198567+00:00,0.000015083,0x28,0x10
"SPI","result",2025-02-05T00:12:28.988331483+00:00,0.000015083,0x00,0x00
"SPI","disable",2025-02-05T00:12:28.988466567+00:00,0.000000083,,
"SPI","enable",2025-02-05T00:12:28.988886483+00:00,0.000000083,,
"SPI","result",2025-02-05T00:12:28.989131233+00:00,0.000015083,0x28,0x10
"SPI","result",2025-02-05T00:12:28.989278233+00:00,0.000015083,0x00,0x00
"SPI","disable",2025-02-05T00:12:28.989410400+00:00,0.000000083,,
"SPI","enable",2025-02-05T00:12:28.989775567+00:00,0.000000083,,
"SPI","result",2025-02-05T00:12:28.990014483+00:00,0.000015083,0x28,0x10
"SPI","result",2025-02-05T00:12:28.990145150+00:00,0.000015083,0x00,0x00
"SPI","disable",2025-02-05T00:12:28.990275817+00:00,0.000000083,,
"SPI","enable",2025-02-05T00:12:28.990632817+00:00,0.000000083,,
"SPI","result",2025-02-05T00:12:28.990886650+00:00,0.000015083,0x28,0x10
"SPI","result",2025-02-05T00:12:28.991028650+00:00,0.000015083,0x00,0x00
"SPI","disable",2025-02-05T00:12:28.991158733+00:00,0.000000083,,
"SPI","enable",2025-02-05T00:12:28.991516483+00:00,0.000000083,,
"SPI","result",2025-02-05T00:12:28.991760983+00:00,0.000015083,0x28,0x10
"SPI","result",2025-02-05T00:12:28.991892650+00:00,0.000015083,0x00,0x00
"SPI","disable",2025-02-05T00:12:28.992024067+00:00,0.000000083,,
"SPI","enable",2025-02-05T00:12:28.992372317+00:00,0.000000083,,
"SPI","result",2025-02-05T00:12:28.992646900+00:00,0.000015083,0x28,0x10
"SPI","result",2025-02-05T00:12:28.992784567+00:00,0.000015083,0x00,0x00
"SPI","disable",2025-02-05T00:12:28.992927317+00:00,0.000000083,,
"SPI","enable",2025-02-05T00:12:28.993300733+00:00,0.000000083,,
"SPI","result",2025-02-05T00:12:28.993573817+00:00,0.000015083,0x28,0x10
"SPI","result",2025-02-05T00:12:28.993716233+00:00,0.000015083,0x00,0x40
"SPI","disable",2025-02-05T00:12:28.993845983+00:00,0.000000083,,
"SPI","enable",2025-02-05T00:12:28.994204567+00:00,0.000000083,,
"SPI","result",2025-02-05T00:12:28.994449483+00:00,0.000015083,0x28,0x10
"SPI","result",2025-02-05T00:12:28.994584567+00:00,0.000015083,0x00,0x66
"SPI","disable",2025-02-05T00:12:28.994718567+00:00,0.000000083,,
"SPI","enable",2025-02-05T00:12:28.995227317+00:00,0.000000083,,
"SPI","result",2025-02-05T00:12:28.995507483+00:00,0.000015083,0x28,0x10
"SPI","result",2025-02-05T00:12:28.995638817+00:00,0.000015083,0x00,0x66
"SPI","disable",2025-02-05T00:12:28.995788650+00:00,0.000000083,,
"SPI","enable",2025-02-05T00:12:29.001505650+00:00,0.000000083,,
"SPI","result",2025-02-05T00:12:29.001982900+00:00,0.000015083,0x24,0x10
"SPI","result",2025-02-05T00:12:29.002153233+00:00,0.000015083,0x00,0x59
"SPI","disable",2025-02-05T00:12:29.002323567+00:00,0.000000083,,
"SPI","enable",2025-02-05T00:12:29.003164483+00:00,0.000000083,,
"SPI","result",2025-02-05T00:12:29.003466400+00:00,0.000015083,0x01,0x10
"SPI","result",2025-02-05T00:12:29.003614900+00:00,0.000015083,0x00,0x10
"SPI","disable",2025-02-05T00:12:29.003766650+00:00,0.000000083,,
"SPI","enable",2025-02-05T00:12:29.003993650+00:00,0.000000083,,
"SPI","result",2025-02-05T00:12:29.004185233+00:00,0.000015083,0x81,0x10
"SPI","result",2025-02-05T00:12:29.004308900+00:00,0.000015083,0x04,0x10
"SPI","disable",2025-02-05T00:12:29.004400650+00:00,0.000000083,,
"SPI","enable",2025-02-05T00:12:29.004561983+00:00,0.000000083,,
"SPI","result",2025-02-05T00:12:29.004713483+00:00,0.000015083,0x27,0x10
"SPI","result",2025-02-05T00:12:29.004835067+00:00,0.000015083,0x00,0x80
"SPI","disable",2025-02-05T00:12:29.004986067+00:00,0.000000083,,
"SPI","enable",2025-02-05T00:12:29.005243567+00:00,0.000000083,,
"SPI","result",2025-02-05T00:12:29.005457233+00:00,0.000015083,0x00,0x10
"SPI","result",2025-02-05T00:12:29.005641900+00:00,0.000015083,0x00,0x10
"SPI","result",2025-02-05T00:12:29.005945483+00:00,0.000015083,0x00,0xFF
"SPI","result",2025-02-05T00:12:29.006254233+00:00,0.000015083,0x00,0xFF
"SPI","result",2025-02-05T00:12:29.006495400+00:00,0.000015083,0x00,0x00
"SPI","result",2025-02-05T00:12:29.006720233+00:00,0.000015083,0x00,0x00
"SPI","result",2025-02-05T00:12:29.007034483+00:00,0.000015083,0x00,0x00
"SPI","result",2025-02-05T00:12:29.007319650+00:00,0.000015083,0x00,0x00
"SPI","result",2025-02-05T00:12:29.007900983+00:00,0.000015083,0x00,0xC8
"SPI","result",2025-02-05T00:12:29.008364567+00:00,0.000015083,0x00,0x41
"SPI","result",2025-02-05T00:12:29.008702983+00:00,0.000015083,0x00,0x00
"SPI","result",2025-02-05T00:12:29.009016400+00:00,0.000015083,0x00,0x00
"SPI","result",2025-02-05T00:12:29.009321150+00:00,0.000015083,0x00,0x48
"SPI","result",2025-02-05T00:12:29.009629150+00:00,0.000015083,0x00,0x42
"SPI","result",2025-02-05T00:12:29.009930233+00:00,0.000015083,0x00,0x33
"SPI","result",2025-02-05T00:12:29.010239817+00:00,0.000015083,0x00,0x33
"SPI","result",2025-02-05T00:12:29.010539983+00:00,0.000015083,0x00,0x53
"SPI","result",2025-02-05T00:12:29.010841900+00:00,0.000015083,0x00,0x40
"SPI","disable",2025-02-05T00:12:29.011247150+00:00,0.000000083,,
"SPI","enable",2025-02-05T00:12:29.013402317+00:00,0.000000083,,
"SPI","result",2025-02-05T00:12:29.013851150+00:00,0.000015083,0xA5,0x00
"SPI","result",2025-02-05T00:12:29.014027317+00:00,0.000015083,0x40,0x40
"SPI","disable",2025-02-05T00:12:29.014149067+00:00,0.000000083,,
"SPI","enable",2025-02-05T00:12:29.014381150+00:00,0.000000083,,
"SPI","result",2025-02-05T00:12:29.014549233+00:00,0.000015083,0x01,0x00
"SPI","result",2025-02-05T00:12:29.014671983+00:00,0.000015083,0x00,0x04
"SPI","disable",2025-02-05T00:12:29.014800983+00:00,0.000000083,,
"SPI","enable",2025-02-05T00:12:29.015002067+00:00,0.000000083,,
"SPI","result",2025-02-05T00:12:29.015203567+00:00,0.000015083,0x81,0x00
"SPI","result",2025-02-05T00:12:29.015338483+00:00,0.000015083,0x10,0x04
"SPI","disable",2025-02-05T00:12:29.015430983+00:00,0.000000083,,
"SPI","enable",2025-02-05T00:12:29.015595150+00:00,0.000000083,,
"SPI","result",2025-02-05T00:12:29.015763400+00:00,0.000015083,0x27,0x10
"SPI","result",2025-02-05T00:12:29.015881233+00:00,0.000015083,0x00,0xD8
"SPI","disable",2025-02-05T00:12:29.016017733+00:00,0.000000083,,
