name,type,start_time,duration,"mosi","miso"
"SPI","enable",0.027224312,0.000000063,,
"SPI","result",0.028213875,0.000007562,0x10,0x00
"SPI","result",0.028676812,0.000007563,0x00,0x24
"SPI","disable",0.029545625,0.000000063,,
"SPI","enable",0.030133125,0.000000063,,
"SPI","result",0.030291625,0.000007562,0x01,0x00
"SPI","result",0.030462188,0.000007562,0x00,0x04
"SPI","disable",0.031471875,0.000000062,,
"SPI","enable",0.031854625,0.000000062,,
"SPI","result",0.031931875,0.0000075,0x81,0x00
"SPI","result",0.032077438,0.000007562,0x04,0x04
"SPI","disable",0.032285,0.000000063,,
"SPI","enable",0.03256,0.000000063,,
"SPI","result",0.032634063,0.000007562,0x27,0x00
"SPI","result",0.032798063,0.000007562,0x00,0x80
"SPI","disable",0.033446688,0.000000063,,
"SPI","enable",0.033738125,0.000000063,,
"SPI","result",0.033810375,0.000007563,0x3C,0x00
"SPI","result",0.03396175,0.000007562,0x00,0x0F
"SPI","disable",0.034446875,0.000000062,,
"SPI","enable",0.034483813,0.000000062,,
"SPI","result",0.034579313,0.000007563,0xBC,0x00
"SPI","result",0.034732,0.000007563,0x8F,0x0F
"SPI","disable",0.03484875,0.000000063,,
"SPI","enable",0.035078562,0.000000063,,
"SPI","result",0.035149875,0.000007563,0x6F,0x00
"SPI","result",0.035295625,0.000007562,0x00,0x00
"SPI","disable",0.0354715,0.000000063,,
"SPI","enable",0.035508625,0.000000063,,
"SPI","result",0.035606313,0.000007562,0xEF,0x00
"SPI","result",0.035745938,0.000007562,0x30,0x00
"SPI","disable",0.035859875,0.000000063,,
"SPI","enable",0.036048,0.000000063,,
"SPI","result",0.036116563,0.000007562,0x5A,0x00
"SPI","result",0.036269875,0.000007562,0x00,0x55
"SPI","disable",0.036435375,0.000000063,,
"SPI","enable",0.03648575,0.000000062,,
"SPI","result",0.03657725,0.000007562,0xDA,0x00
"SPI","result",0.036715438,0.000007562,0x55,0x55
"SPI","disable",0.036836563,0.000000062,,
"SPI","enable",0.037009,0.000000063,,
"SPI","result",0.037081,0.000007563,0x5C,0x00
"SPI","result",0.037226187,0.000007563,0x00,0x70
"SPI","disable",0.037435187,0.000000063,,
"SPI","enable",0.037475875,0.000000063,,
"SPI","result",0.03757175,0.000007562,0xDC,0x00
"SPI","result",0.037713,0.000007562,0x70,0x70
"SPI","disable",0.037836688,0.000000062,,
"SPI","enable",0.038086687,0.000000063,,
"SPI","result",0.038155188,0.000007562,0xAF,0x00
"SPI","result",0.038370563,0.000007562,0x2D,0x00
"SPI","result",0.038378563,0.000007562,0xD4,0x00
"SPI","disable",0.0385785,0.000000063,,
"SPI","enable",0.038714313,0.000000063,,
"SPI","result",0.038781312,0.000007563,0x2E,0x00
"SPI","result",0.038935438,0.000007562,0x00,0x98
"SPI","disable",0.039427125,0.000000062,,
"SPI","enable",0.039627625,0.000000063,,
"SPI","result",0.039703875,0.000007562,0xAE,0x00
"SPI","result",0.039845,0.000007562,0x88,0x98
"SPI","disable",0.039970313,0.000000063,,
"SPI","enable",0.040598625,0.000000063,,
"SPI","result",0.040665938,0.0000075,0x82,0x00
"SPI","result",0.040821438,0.0000075,0x01,0x00
"SPI","result",0.040829438,0.000007562,0x00,0x1A
"SPI","result",0.040837438,0.000007562,0x80,0x0B
"SPI","result",0.0408455,0.000007562,0x10,0x00
"SPI","result",0.0408535,0.000007562,0x00,0x52
"SPI","disable",0.040940125,0.000000063,,
"SPI","enable",0.040988312,0.000000063,,
"SPI","result",0.041124313,0.000007562,0x99,0x00
"SPI","result",0.04127675,0.000007562,0xE0,0x86
"SPI","result",0.04128475,0.000007562,0xE0,0x8A
"SPI","disable",0.041471812,0.000000063,,
"SPI","enable",0.041701688,0.000000062,,
"SPI","result",0.0419495,0.000007562,0xB7,0x00
"SPI","result",0.04207275,0.000007562,0xD0,0x10
"SPI","disable",0.042261188,0.000000063,,
"SPI","enable",0.04247025,0.000000062,,
"SPI","result",0.042549375,0.0000075,0xAC,0x00
"SPI","result",0.042702313,0.000007562,0x00,0x00
"SPI","disable",0.042902562,0.000000063,,
"SPI","enable",0.043100562,0.000000063,,
"SPI","result",0.043179125,0.000007562,0xAD,0x00
"SPI","result",0.043318938,0.000007562,0x04,0x03
"SPI","disable",0.043438875,0.000000063,,
"SPI","enable",0.043731938,0.000000062,,
"SPI","result",0.043802375,0.0000075,0x87,0x00
"SPI","result",0.0439555,0.000007563,0x6C,0xE4
"SPI","disable",0.044070125,0.000000063,,
"SPI","enable",0.044240063,0.000000063,,
"SPI","result",0.044309125,0.000007562,0x88,0x00
"SPI","result",0.044463938,0.000007562,0x80,0xC0
"SPI","disable",0.04458,0.000000063,,
"SPI","enable",0.044724625,0.000000063,,
"SPI","result",0.04480425,0.000007562,0x89,0x00
"SPI","result",0.044941875,0.000007562,0x00,0x00
"SPI","disable",0.045062875,0.000000063,,
"SPI","enable",0.045316375,0.000000063,,
"SPI","result",0.04539725,0.000007562,0x3D,0x00
"SPI","result",0.04555025,0.000007563,0x00,0x02
"SPI","disable",0.046439063,0.000000063,,
"SPI","enable",0.046481375,0.000000063,,
"SPI","result",0.046575062,0.0000075,0xBD,0x00
"SPI","result",0.046716,0.000007562,0x02,0x02
"SPI","disable",0.0468305,0.000000062,,
"SPI","enable",0.047218125,0.000000063,,
"SPI","result",0.047292438,0.0000075,0x11,0x00
"SPI","result",0.047446187,0.0000075,0x00,0x9F
"SPI","disable",0.048457063,0.000000062,,
"SPI","enable",0.048588875,0.000000063,,
"SPI","result",0.048670625,0.000007562,0x91,0x00
"SPI","result",0.048813437,0.000007563,0x9F,0x9F
"SPI","disable",0.048922812,0.000000063,,
"SPI","enable",0.048979187,0.000000063,,
"SPI","result",0.049056875,0.000007563,0x87,0x00
"SPI","result",0.049213875,0.000007563,0xE4,0x6C
"SPI","disable",0.04932875,0.000000063,,
"SPI","enable",0.049372813,0.000000063,,
"SPI","result",0.049456812,0.000007563,0x88,0x00
"SPI","result",0.049612125,0.000007563,0xC0,0x80
"SPI","disable",0.049728188,0.000000063,,
"SPI","enable",0.049784875,0.000000063,,
"SPI","result",0.049865,0.000007563,0x89,0x00
"SPI","result",0.050011563,0.000007562,0x00,0x00
"SPI","disable",0.050134625,0.000000063,,
"SPI","enable",0.050175437,0.000000063,,
"SPI","result",0.050257062,0.000007562,0x11,0x00
"SPI","result",0.05040625,0.000007562,0x00,0x9F
"SPI","disable",0.051433875,0.000000063,,
"SPI","enable",0.05149475,0.000000062,,
"SPI","result",0.05157425,0.000007562,0x91,0x00
"SPI","result",0.051722687,0.000007562,0x9C,0x9F
"SPI","disable",0.051854375,0.000000062,,
"SPI","enable",0.052588687,0.000000063,,
"SPI","result",0.05266275,0.0000075,0x25,0x00
"SPI","result",0.05281125,0.000007563,0x00,0x00
"SPI","disable",0.053438813,0.000000063,,
"SPI","enable",0.053478875,0.000000063,,
"SPI","result",0.053562625,0.000007562,0xA5,0x00
"SPI","result",0.0537145,0.000007562,0x40,0x00
"SPI","disable",0.053839563,0.000000063,,
"SPI","enable",0.053881062,0.000000063,,
"SPI","result",0.053972688,0.0000075,0x01,0x00
"SPI","result",0.054116687,0.000007562,0x00,0x04
"SPI","disable",0.054443062,0.000000063,,
"SPI","enable",0.054476187,0.000000063,,
"SPI","result",0.054562813,0.0000075,0x81,0x00
"SPI","result",0.054715188,0.000007562,0x10,0x04
"SPI","disable",0.054827125,0.000000063,,
"SPI","enable",0.05488275,0.000000063,,
"SPI","result",0.054964687,0.000007562,0x27,0x00
"SPI","result",0.055116688,0.000007562,0x00,0xD8
"SPI","disable",0.055429312,0.000000063,,
"SPI","enable",0.055589812,0.000000063,,
"SPI","result",0.055666875,0.000007562,0x28,0x00
"SPI","result",0.055807562,0.000007562,0x00,0x00
"SPI","disable",0.056444313,0.000000063,,
"SPI","enable",0.056541625,0.000000063,,
"SPI","result",0.056614375,0.000007563,0x28,0x00
"SPI","result",0.05676025,0.000007562,0x00,0x00
"SPI","disable",0.057404438,0.000000062,,
"SPI","enable",0.0574575,0.000000063,,
"SPI","result",0.0575435,0.000007562,0x28,0x00
"SPI","result",0.057686812,0.000007562,0x00,0x00
"SPI","disable",0.058448062,0.000000063,,
"SPI","enable",0.058485563,0.000000063,,
"SPI","result",0.058565188,0.000007562,0x28,0x00
"SPI","result",0.058715813,0.000007562,0x00,0x00
"SPI","disable",0.059431312,0.000000063,,
"SPI","enable",0.059465312,0.000000063,,
"SPI","result",0.059559125,0.000007562,0x28,0x00
"SPI","result",0.059703625,0.0000075,0x00,0x00
"SPI","disable",0.06043175,0.000000063,,
"SPI","enable",0.06048325,0.000000063,,
"SPI","result",0.060562062,0.000007562,0x28,0x00
"SPI","result",0.060763062,0.000007563,0x00,0x00
"SPI","disable",0.061425313,0.000000063,,
"SPI","enable",0.061465625,0.000000063,,
"SPI","result",0.061552375,0.000007563,0x28,0x00
"SPI","result",0.061693937,0.000007562,0x00,0x00
"SPI","disable",0.062406,0.000000063,,
"SPI","enable",0.062443375,0.000000063,,
"SPI","result",0.062531625,0.000007563,0x28,0x00
"SPI","result",0.062681875,0.000007563,0x00,0x00
"SPI","disable",0.0634885,0.000000063,,
"SPI","enable",0.063531313,0.000000063,,
"SPI","result",0.063617687,0.000007562,0x28,0x00
"SPI","result",0.063770687,0.000007563,0x00,0x00
"SPI","disable",0.0644075,0.000000063,,
"SPI","enable",0.064450563,0.000000062,,
"SPI","result",0.064527688,0.000007562,0x28,0x00
"SPI","result",0.064716625,0.000007562,0x00,0x00
"SPI","disable",0.065425875,0.000000063,,
"SPI","enable",0.065479,0.000000063,,
"SPI","result",0.065558875,0.000007562,0x28,0x00
"SPI","result",0.065709687,0.000007562,0x00,0x00
"SPI","disable",0.066414438,0.000000063,,
"SPI","enable",0.066466313,0.000000062,,
"SPI","result",0.06657525,0.000007562,0x28,0x00
"SPI","result",0.066716187,0.000007563,0x00,0x00
"SPI","disable",0.067471188,0.000000062,,
"SPI","enable",0.067504937,0.000000063,,
"SPI","result",0.067602938,0.000007562,0x28,0x00
"SPI","result",0.067739312,0.000007563,0x00,0x00
"SPI","disable",0.068426438,0.000000063,,
"SPI","enable",0.068465875,0.000000062,,
"SPI","result",0.068555625,0.000007562,0x28,0x00
"SPI","result",0.068698875,0.000007562,0x00,0x00
"SPI","disable",0.069442812,0.000000063,,
"SPI","enable",0.069504062,0.000000063,,
"SPI","result",0.069583938,0.000007562,0x28,0x00
"SPI","result",0.069728438,0.000007562,0x00,0x00
"SPI","disable",0.070437938,0.000000063,,
"SPI","enable",0.070469187,0.000000063,,
"SPI","result",0.070557,0.000007562,0x28,0x00
"SPI","result",0.070710687,0.000007562,0x00,0x00
"SPI","disable",0.071415,0.000000063,,
"SPI","enable",0.071476688,0.000000063,,
"SPI","result",0.07155225,0.0000075,0x28,0x00
"SPI","result",0.071705187,0.000007562,0x00,0x00
"SPI","disable",0.072426938,0.000000063,,
"SPI","enable",0.072487875,0.000000063,,
"SPI","result",0.072568938,0.000007562,0x28,0x00
"SPI","result",0.072705687,0.000007563,0x00,0x00
"SPI","disable",0.073432937,0.000000063,,
"SPI","enable",0.073483812,0.000000063,,
"SPI","result",0.073566812,0.000007563,0x28,0x00
"SPI","result",0.073733125,0.000007562,0x00,0x00
"SPI","disable",0.074438813,0.000000063,,
"SPI","enable",0.074496812,0.000000063,,
"SPI","result",0.074567875,0.000007562,0x28,0x00
"SPI","result",0.074721687,0.000007562,0x00,0x00
"SPI","disable",0.075521062,0.000000063,,
"SPI","enable",0.075572375,0.000000063,,
"SPI","result",0.075648563,0.000007562,0x28,0x00
"SPI","result",0.075857813,0.000007562,0x00,0x00
"SPI","disable",0.076419375,0.000000063,,
"SPI","enable",0.076549438,0.000000062,,
"SPI","result",0.076617938,0.000007562,0x28,0x00
"SPI","result",0.07677075,0.000007562,0x00,0x00
"SPI","disable",0.0775515,0.000000062,,
"SPI","enable",0.077616563,0.000000062,,
"SPI","result",0.07768825,0.0000075,0x28,0x00
"SPI","result",0.07789875,0.0000075,0x00,0x00
"SPI","disable",0.0784235,0.000000063,,
"SPI","enable",0.078467938,0.000000063,,
"SPI","result",0.078555938,0.000007562,0x28,0x00
"SPI","result",0.078703812,0.000007563,0x00,0x00
"SPI","disable",0.079612687,0.000000063,,
"SPI","enable",0.079655438,0.000000062,,
"SPI","result",0.079736625,0.000007563,0x28,0x00
"SPI","result",0.079879813,0.000007562,0x00,0x00
"SPI","disable",0.080422062,0.000000063,,
"SPI","enable",0.0805105,0.000000063,,
"SPI","result",0.080578,0.000007562,0x28,0x00
"SPI","result",0.080727813,0.000007562,0x00,0x00
"SPI","disable",0.081424375,0.000000063,,
"SPI","enable",0.081483688,0.000000062,,
"SPI","result",0.081557875,0.000007562,0x28,0x00
"SPI","result",0.081702438,0.000007562,0x00,0x00
"SPI","disable",0.082445375,0.000000063,,
"SPI","enable",0.082500063,0.000000063,,
"SPI","result",0.082586625,0.000007562,0x28,0x00
"SPI","result",0.082734813,0.0000075,0x00,0x00
"SPI","disable",0.08342175,0.000000063,,
"SPI","enable",0.083467938,0.000000062,,
"SPI","result",0.0835485,0.000007562,0x28,0x00
"SPI","result",0.083697688,0.0000075,0x00,0x00
"SPI","disable",0.084416437,0.000000063,,
"SPI","enable",0.084476187,0.000000063,,
"SPI","result",0.084571938,0.000007562,0x28,0x00
"SPI","result",0.084703,0.000007563,0x00,0x00
"SPI","disable",0.085414687,0.000000063,,
"SPI","enable",0.085452687,0.000000063,,
"SPI","result",0.085550875,0.000007562,0x28,0x00
"SPI","result",0.085690938,0.000007562,0x00,0x00
"SPI","disable",0.086405937,0.000000063,,
"SPI","enable",0.086446937,0.000000063,,
"SPI","result",0.086533,0.000007562,0x28,0x00
"SPI","result",0.086686813,0.000007562,0x00,0x00
"SPI","disable",0.087413875,0.000000063,,
"SPI","enable",0.087474375,0.000000062,,
"SPI","result",0.087563875,0.000007563,0x28,0x00
"SPI","result",0.087698188,0.000007562,0x00,0x00
"SPI","disable",0.088422188,0.000000063,,
"SPI","enable",0.088523062,0.000000063,,
"SPI","result",0.088609375,0.000007562,0x28,0x00
"SPI","result",0.088740375,0.000007562,0x00,0x00
"SPI","disable",0.089413562,0.000000063,,
"SPI","enable",0.089452125,0.000000062,,
"SPI","result",0.0895495,0.000007562,0x28,0x00
"SPI","result",0.089690812,0.0000075,0x00,0x00
"SPI","disable",0.090420375,0.000000063,,
"SPI","enable",0.090458125,0.000000063,,
"SPI","result",0.090550875,0.000007563,0x28,0x00
"SPI","result",0.090696062,0.000007563,0x00,0x00
"SPI","disable",0.091412437,0.000000063,,
"SPI","enable",0.091594687,0.000000063,,
"SPI","result",0.09168575,0.000007563,0x28,0x00
"SPI","result",0.091813875,0.000007562,0x00,0x00
"SPI","disable",0.092423125,0.000000063,,
"SPI","enable",0.092457625,0.000000062,,
"SPI","result",0.092550438,0.000007562,0x28,0x00
"SPI","result",0.092696938,0.000007562,0x00,0x00
"SPI","disable",0.09343,0.000000063,,
"SPI","enable",0.093462875,0.000000063,,
"SPI","result",0.093556063,0.000007562,0x28,0x00
"SPI","result",0.093698437,0.000007562,0x00,0x00
"SPI","disable",0.0944485,0.000000063,,
"SPI","enable",0.094489937,0.000000063,,
"SPI","result",0.094595062,0.000007563,0x28,0x00
"SPI","result",0.09473925,0.000007562,0x00,0x00
"SPI","disable",0.095415687,0.000000063,,
"SPI","enable",0.0954535,0.000000063,,
"SPI","result",0.095538188,0.000007562,0x28,0x00
"SPI","result",0.0956865,0.000007562,0x00,0x00
"SPI","disable",0.09641875,0.000000062,,
"SPI","enable",0.096448688,0.000000063,,
"SPI","result",0.0965365,0.000007562,0x28,0x00
"SPI","result",0.096690938,0.000007563,0x00,0x00
"SPI","disable",0.09742425,0.000000062,,
"SPI","enable",0.097478437,0.000000063,,
"SPI","result",0.0975625,0.000007563,0x28,0x00
"SPI","result",0.097711313,0.000007562,0x00,0x00
"SPI","disable",0.098398937,0.000000063,,
"SPI","enable",0.098445062,0.000000063,,
"SPI","result",0.098531875,0.000007563,0x28,0x00
"SPI","result",0.098685812,0.000007562,0x00,0x00
"SPI","disable",0.099427063,0.000000062,,
"SPI","enable",0.09951325,0.000000063,,
"SPI","result",0.09959575,0.000007563,0x28,0x00
"SPI","result",0.099735812,0.000007563,0x00,0x00
"SPI","disable",0.100388938,0.000000062,,
"SPI","enable",0.100440187,0.000000063,,
"SPI","result",0.10053125,0.000007562,0x28,0x00
"SPI","result",0.1006795,0.000007562,0x00,0x00
"SPI","disable",0.101424812,0.000000063,,
"SPI","enable",0.10148775,0.000000062,,
"SPI","result",0.101561937,0.000007562,0x28,0x00
"SPI","result",0.1017065,0.000007562,0x00,0x00
"SPI","disable",0.102406,0.000000063,,
"SPI","enable",0.102449188,0.000000062,,
"SPI","result",0.10253175,0.000007562,0x28,0x00
"SPI","result",0.10268525,0.000007562,0x00,0x00
"SPI","disable",0.103388312,0.000000063,,
"SPI","enable",0.103445438,0.000000062,,
"SPI","result",0.103529875,0.000007563,0x28,0x00
"SPI","result",0.103672875,0.0000075,0x00,0x00
"SPI","disable",0.104384375,0.000000063,,
"SPI","enable",0.104441312,0.000000063,,
"SPI","result",0.104520312,0.000007563,0x28,0x00
"SPI","result",0.10466975,0.0000075,0x00,0x40
"SPI","disable",0.105404313,0.000000063,,
"SPI","enable",0.105448375,0.000000063,,
"SPI","result",0.10553025,0.000007562,0x28,0x53
"SPI","result",0.105702063,0.000007563,0x00,0x40
"SPI","disable",0.106402687,0.000000063,,
"SPI","enable",0.106454375,0.000000062,,
"SPI","result",0.106539875,0.000007563,0x28,0x53
"SPI","result",0.106686875,0.000007562,0x00,0x40
"SPI","disable",0.107396187,0.000000063,,
"SPI","enable",0.107424375,0.000000063,,
"SPI","result",0.107524375,0.000007562,0x28,0x53
"SPI","result",0.107669688,0.000007562,0x00,0x00
"SPI","disable",0.108419375,0.000000063,,
"SPI","enable",0.108450562,0.000000063,,
"SPI","result",0.108551125,0.000007563,0x28,0x53
"SPI","result",0.108692063,0.000007562,0x00,0x00
"SPI","disable",0.109397312,0.000000063,,
"SPI","enable",0.109550125,0.000000063,,
"SPI","result",0.109636062,0.000007562,0x28,0x53
"SPI","result",0.109792875,0.000007563,0x00,0x00
"SPI","disable",0.110471562,0.000000063,,
"SPI","enable",0.110507313,0.000000062,,
"SPI","result",0.110604063,0.000007562,0x28,0x53
"SPI","result",0.110748938,0.000007562,0x00,0x00
"SPI","disable",0.1113925,0.000000062,,
"SPI","enable",0.11144775,0.000000063,,
"SPI","result",0.111532,0.000007563,0x28,0x53
"SPI","result",0.111679312,0.000007563,0x00,0x00
"SPI","disable",0.112395313,0.000000063,,
"SPI","enable",0.112436125,0.000000063,,
"SPI","result",0.112518875,0.000007562,0x28,0x53
"SPI","result",0.112664313,0.000007562,0x00,0x00
"SPI","disable",0.11340625,0.000000063,,
"SPI","enable",0.11344525,0.000000063,,
"SPI","result",0.11353275,0.000007563,0x28,0x53
"SPI","result",0.1136865,0.000007563,0x00,0x00
"SPI","disable",0.11438425,0.000000063,,
"SPI","enable",0.114446625,0.000000062,,
"SPI","result",0.114529063,0.000007562,0x28,0x53
"SPI","result",0.1146755,0.000007562,0x00,0x00
"SPI","disable",0.11538725,0.000000063,,
"SPI","enable",0.115442812,0.000000063,,
"SPI","result",0.115529375,0.000007562,0x28,0x53
"SPI","result",0.115669813,0.000007562,0x00,0x00
"SPI","disable",0.116404,0.000000063,,
"SPI","enable",0.11646575,0.000000063,,
"SPI","result",0.1165365,0.000007562,0x28,0x53
"SPI","result",0.116690063,0.000007562,0x00,0x00
"SPI","disable",0.117389125,0.000000063,,
"SPI","enable",0.117445062,0.000000063,,
"SPI","result",0.117522875,0.000007563,0x28,0x53
"SPI","result",0.117667688,0.000007562,0x00,0x00
"SPI","disable",0.118372875,0.000000063,,
"SPI","enable",0.11842825,0.000000062,,
"SPI","result",0.118510313,0.000007562,0x28,0x53
"SPI","result",0.118660188,0.000007562,0x00,0x00
"SPI","disable",0.11939,0.000000063,,
"SPI","enable",0.119442813,0.000000062,,
"SPI","result",0.119529937,0.000007562,0x28,0x53
"SPI","result",0.119680625,0.000007563,0x00,0x00
"SPI","disable",0.120398937,0.000000063,,
"SPI","enable",0.1204345,0.000000062,,
"SPI","result",0.120533125,0.000007562,0x28,0x53
"SPI","result",0.120677187,0.000007562,0x00,0x00
"SPI","disable",0.121368,0.000000063,,
"SPI","enable",0.121421438,0.000000062,,
"SPI","result",0.12150075,0.000007562,0x28,0x53
"SPI","result",0.121651063,0.000007562,0x00,0x00
"SPI","disable",0.12305175,0.000000063,,
"SPI","enable",0.123081875,0.000000062,,
"SPI","result",0.123184188,0.000007562,0x28,0x53
"SPI","result",0.123327125,0.000007562,0x00,0x00
"SPI","disable",0.124426312,0.000000063,,
"SPI","enable",0.124523812,0.000000063,,
"SPI","result",0.124606875,0.000007562,0x28,0x53
"SPI","result",0.124747625,0.000007562,0x00,0x00
"SPI","disable",0.125390875,0.000000063,,
"SPI","enable",0.125541875,0.000000063,,
"SPI","result",0.125643438,0.000007562,0x28,0x53
"SPI","result",0.125759625,0.000007563,0x00,0x00
"SPI","disable",0.126419188,0.000000062,,
"SPI","enable",0.1265215,0.000000063,,
"SPI","result",0.126599438,0.000007562,0x28,0x53
"SPI","result",0.12674375,0.000007562,0x00,0x00
"SPI","disable",0.127493,0.000000063,,
"SPI","enable",0.127547563,0.000000062,,
"SPI","result",0.127641625,0.000007562,0x28,0x53
"SPI","result",0.127790437,0.000007563,0x00,0x00
"SPI","disable",0.128399,0.000000063,,
"SPI","enable",0.1284295,0.000000063,,
"SPI","result",0.128620312,0.000007562,0x28,0x53
"SPI","result",0.128737063,0.000007562,0x00,0x00
